Title: *inverter
Date: Tue Feb 14 18:10:07  2012
Plotname: AC Analysis
Flags: complex
No. Variables: 3
No. Points: 151     
Variables:
	0	frequency	frequency	grid=3
	1	v(out1)	voltage
	2	v(in1)	voltage
Values:
0		1.000000000000000e+07,8.999999999999999e-03
	-8.125587233787791e-03,6.093059689173921e-06
	1.000000000000000e-02,0.000000000000000e+00
1		1.047128548050900e+07,8.999999999999999e-03
	-8.125587072880552e-03,6.380216936512921e-06
	1.000000000000000e-02,0.000000000000000e+00
2		1.096478196143185e+07,8.999999999999999e-03
	-8.125586896449091e-03,6.680907516278218e-06
	1.000000000000000e-02,0.000000000000000e+00
3		1.148153621496883e+07,8.999999999999999e-03
	-8.125586702995626e-03,6.995769238969502e-06
	1.000000000000000e-02,0.000000000000000e+00
4		1.202264434617413e+07,8.999999999999999e-03
	-8.125586490877862e-03,7.325469974790301e-06
	1.000000000000000e-02,0.000000000000000e+00
5		1.258925411794168e+07,8.999999999999999e-03
	-8.125586258295046e-03,7.670709070410158e-06
	1.000000000000000e-02,0.000000000000000e+00
6		1.318256738556408e+07,8.999999999999999e-03
	-8.125586003272683e-03,8.032218832510415e-06
	1.000000000000000e-02,0.000000000000000e+00
7		1.380384264602885e+07,8.999999999999999e-03
	-8.125585723645775e-03,8.410766081262985e-06
	1.000000000000000e-02,0.000000000000000e+00
8		1.445439770745928e+07,8.999999999999999e-03
	-8.125585417040424e-03,8.807153777040296e-06
	1.000000000000000e-02,0.000000000000000e+00
9		1.513561248436209e+07,8.999999999999999e-03
	-8.125585080853693e-03,9.222222723810311e-06
	1.000000000000000e-02,0.000000000000000e+00
10		1.584893192461115e+07,8.999999999999999e-03
	-8.125584712231489e-03,9.656853352833794e-06
	1.000000000000000e-02,0.000000000000000e+00
11		1.659586907437562e+07,8.999999999999999e-03
	-8.125584308044338e-03,1.011196759045181e-05
	1.000000000000000e-02,0.000000000000000e+00
12		1.737800828749377e+07,8.999999999999999e-03
	-8.125583864860810e-03,1.058853081393054e-05
	1.000000000000000e-02,0.000000000000000e+00
13		1.819700858609985e+07,8.999999999999999e-03
	-8.125583378918373e-03,1.108755389951806e-05
	1.000000000000000e-02,0.000000000000000e+00
14		1.905460717963249e+07,8.999999999999999e-03
	-8.125582846091453e-03,1.161009536706419e-05
	1.000000000000000e-02,0.000000000000000e+00
15		1.995262314968882e+07,8.999999999999999e-03
	-8.125582261856387e-03,1.215726362576041e-05
	1.000000000000000e-02,0.000000000000000e+00
16		2.089296130854042e+07,8.999999999999999e-03
	-8.125581621253011e-03,1.273021932577246e-05
	1.000000000000000e-02,0.000000000000000e+00
17		2.187761623949555e+07,8.999999999999999e-03
	-8.125580918842535e-03,1.333017782076418e-05
	1.000000000000000e-02,0.000000000000000e+00
18		2.290867652767776e+07,8.999999999999999e-03
	-8.125580148661349e-03,1.395841174654799e-05
	1.000000000000000e-02,0.000000000000000e+00
19		2.398832919019494e+07,8.999999999999999e-03
	-8.125579304170362e-03,1.461625372134552e-05
	1.000000000000000e-02,0.000000000000000e+00
20		2.511886431509584e+07,8.999999999999999e-03
	-8.125578378199473e-03,1.530509917340170e-05
	1.000000000000000e-02,0.000000000000000e+00
21		2.630267991895386e+07,8.999999999999999e-03
	-8.125577362886644e-03,1.602640930196837e-05
	1.000000000000000e-02,0.000000000000000e+00
22		2.754228703338171e+07,8.999999999999999e-03
	-8.125576249611131e-03,1.678171417795884e-05
	1.000000000000000e-02,0.000000000000000e+00
23		2.884031503126611e+07,8.999999999999999e-03
	-8.125575028920222e-03,1.757261599087424e-05
	1.000000000000000e-02,0.000000000000000e+00
24		3.019951720402022e+07,8.999999999999999e-03
	-8.125573690448943e-03,1.840079244891644e-05
	1.000000000000000e-02,0.000000000000000e+00
25		3.162277660168386e+07,8.999999999999999e-03
	-8.125572222831966e-03,1.926800033953102e-05
	1.000000000000000e-02,0.000000000000000e+00
26		3.311311214825918e+07,8.999999999999999e-03
	-8.125570613607041e-03,2.017607925796898e-05
	1.000000000000000e-02,0.000000000000000e+00
27		3.467368504525324e+07,8.999999999999999e-03
	-8.125568849109071e-03,2.112695551181757e-05
	1.000000000000000e-02,0.000000000000000e+00
28		3.630780547701021e+07,1.000000000000000e-02
	-8.125566914353972e-03,2.212264620982989e-05
	1.000000000000000e-02,0.000000000000000e+00
29		3.801893963205621e+07,1.000000000000000e-02
	-8.125564792911278e-03,2.316526354378107e-05
	1.000000000000000e-02,0.000000000000000e+00
30		3.981071705534982e+07,1.000000000000000e-02
	-8.125562466764474e-03,2.425701927249610e-05
	1.000000000000000e-02,0.000000000000000e+00
31		4.168693834703364e+07,1.000000000000000e-02
	-8.125559916157774e-03,2.540022941763281e-05
	1.000000000000000e-02,0.000000000000000e+00
32		4.365158322401670e+07,1.000000000000000e-02
	-8.125557119428119e-03,2.659731918126298e-05
	1.000000000000000e-02,0.000000000000000e+00
33		4.570881896148762e+07,1.000000000000000e-02
	-8.125554052820907e-03,2.785082809577746e-05
	1.000000000000000e-02,0.000000000000000e+00
34		4.786300923226396e+07,1.000000000000000e-02
	-8.125550690287893e-03,2.916341541714782e-05
	1.000000000000000e-02,0.000000000000000e+00
35		5.011872336272737e+07,1.000000000000000e-02
	-8.125547003265529e-03,3.053786577310917e-05
	1.000000000000000e-02,0.000000000000000e+00
36		5.248074602497741e+07,1.000000000000000e-02
	-8.125542960431852e-03,3.197709507838851e-05
	1.000000000000000e-02,0.000000000000000e+00
37		5.495408738576262e+07,1.000000000000000e-02
	-8.125538527439810e-03,3.348415672968939e-05
	1.000000000000000e-02,0.000000000000000e+00
38		5.754399373371587e+07,1.000000000000000e-02
	-8.125533666624767e-03,3.506224809376250e-05
	1.000000000000000e-02,0.000000000000000e+00
39		6.025595860743596e+07,1.000000000000000e-02
	-8.125528336683648e-03,3.671471730254024e-05
	1.000000000000000e-02,0.000000000000000e+00
40		6.309573444801953e+07,1.000000000000000e-02
	-8.125522492322975e-03,3.844507036999675e-05
	1.000000000000000e-02,0.000000000000000e+00
41		6.606934480075981e+07,1.000000000000000e-02
	-8.125516083872759e-03,4.025697864611386e-05
	1.000000000000000e-02,0.000000000000000e+00
42		6.918309709189388e+07,1.000000000000000e-02
	-8.125509056862917e-03,4.215428662408965e-05
	1.000000000000000e-02,0.000000000000000e+00
43		7.244359600749926e+07,1.000000000000000e-02
	-8.125501351558527e-03,4.414102011772377e-05
	1.000000000000000e-02,0.000000000000000e+00
44		7.585775750291865e+07,1.000000000000000e-02
	-8.125492902449969e-03,4.622139482675337e-05
	1.000000000000000e-02,0.000000000000000e+00
45		7.943282347242844e+07,1.000000000000000e-02
	-8.125483637693411e-03,4.839982530879854e-05
	1.000000000000000e-02,0.000000000000000e+00
46		8.317637711026742e+07,1.000000000000000e-02
	-8.125473478496908e-03,5.068093437751076e-05
	1.000000000000000e-02,0.000000000000000e+00
47		8.709635899560840e+07,1.000000000000000e-02
	-8.125462338446661e-03,5.306956294750348e-05
	1.000000000000000e-02,0.000000000000000e+00
48		9.120108393559134e+07,1.000000000000000e-02
	-8.125450122767617e-03,5.557078034768496e-05
	1.000000000000000e-02,0.000000000000000e+00
49		9.549925860214399e+07,1.000000000000000e-02
	-8.125436727511891e-03,5.818989512571437e-05
	1.000000000000000e-02,0.000000000000000e+00
50		1.000000000000004e+08,1.000000000000000e-02
	-8.125422038667918e-03,6.093246636746586e-05
	1.000000000000000e-02,0.000000000000000e+00
51		1.047128548050904e+08,1.000000000000000e-02
	-8.125405931182474e-03,6.380431555661751e-05
	1.000000000000000e-02,0.000000000000000e+00
52		1.096478196143190e+08,1.000000000000000e-02
	-8.125388267886901e-03,6.681153900078627e-05
	1.000000000000000e-02,0.000000000000000e+00
53		1.148153621496888e+08,1.000000000000000e-02
	-8.125368898318058e-03,6.996052085201419e-05
	1.000000000000000e-02,0.000000000000000e+00
54		1.202264434617418e+08,1.000000000000000e-02
	-8.125347657423433e-03,7.325794675087841e-05
	1.000000000000000e-02,0.000000000000000e+00
55		1.258925411794173e+08,1.000000000000000e-02
	-8.125324364138892e-03,7.671081812505555e-05
	1.000000000000000e-02,0.000000000000000e+00
56		1.318256738556413e+08,1.000000000000000e-02
	-8.125298819826229e-03,8.032646717482824e-05
	1.000000000000000e-02,0.000000000000000e+00
57		1.380384264602891e+08,1.000000000000000e-02
	-8.125270806556426e-03,8.411257257978295e-05
	1.000000000000000e-02,0.000000000000000e+00
58		1.445439770745934e+08,1.000000000000000e-02
	-8.125240085223025e-03,8.807717596282424e-05
	1.000000000000000e-02,0.000000000000000e+00
59		1.513561248436215e+08,1.000000000000000e-02
	-8.125206393468351e-03,9.222869914963026e-05
	1.000000000000000e-02,0.000000000000000e+00
60		1.584893192461121e+08,1.000000000000000e-02
	-8.125169443403510e-03,9.657596226380502e-05
	1.000000000000000e-02,0.000000000000000e+00
61		1.659586907437569e+08,1.000000000000000e-02
	-8.125128919101055e-03,1.011282027002607e-04
	1.000000000000000e-02,0.000000000000000e+00
62		1.737800828749384e+08,1.000000000000000e-02
	-8.125084473836874e-03,1.058950950217927e-04
	1.000000000000000e-02,0.000000000000000e+00
63		1.819700858609993e+08,1.000000000000000e-02
	-8.125035727055387e-03,1.108867718264094e-04
	1.000000000000000e-02,0.000000000000000e+00
64		1.905460717963257e+08,1.000000000000000e-02
	-8.124982261029206e-03,1.161138456357587e-04
	1.000000000000000e-02,0.000000000000000e+00
65		1.995262314968890e+08,1.000000000000000e-02
	-8.124923617181265e-03,1.215874318579673e-04
	1.000000000000000e-02,0.000000000000000e+00
66		2.089296130854051e+08,1.100000000000000e-02
	-8.124859292033805e-03,1.273191728813914e-04
	1.000000000000000e-02,0.000000000000000e+00
67		2.187761623949564e+08,1.100000000000000e-02
	-8.124788732744623e-03,1.333212633591885e-04
	1.000000000000000e-02,0.000000000000000e+00
68		2.290867652767785e+08,1.100000000000000e-02
	-8.124711332186379e-03,1.396064767482647e-04
	1.000000000000000e-02,0.000000000000000e+00
69		2.398832919019504e+08,1.100000000000000e-02
	-8.124626423519726e-03,1.461881931700569e-04
	1.000000000000000e-02,0.000000000000000e+00
70		2.511886431509594e+08,1.100000000000000e-02
	-8.124533274205216e-03,1.530804286647812e-04
	1.000000000000000e-02,0.000000000000000e+00
71		2.630267991895397e+08,1.100000000000000e-02
	-8.124431079392444e-03,1.602978659152343e-04
	1.000000000000000e-02,0.000000000000000e+00
72		2.754228703338182e+08,1.100000000000000e-02
	-8.124318954617514e-03,1.678558865209812e-04
	1.000000000000000e-02,0.000000000000000e+00
73		2.884031503126622e+08,1.100000000000000e-02
	-8.124195927731599e-03,1.757706049088169e-04
	1.000000000000000e-02,0.000000000000000e+00
74		3.019951720402034e+08,1.100000000000000e-02
	-8.124060929973854e-03,1.840589039707351e-04
	1.000000000000000e-02,0.000000000000000e+00
75		3.162277660168398e+08,1.100000000000000e-02
	-8.123912786091238e-03,1.927384725262953e-04
	1.000000000000000e-02,0.000000000000000e+00
76		3.311311214825931e+08,1.100000000000000e-02
	-8.123750203395575e-03,2.018278447122060e-04
	1.000000000000000e-02,0.000000000000000e+00
77		3.467368504525337e+08,1.100000000000000e-02
	-8.123571759634265e-03,2.113464414081330e-04
	1.000000000000000e-02,0.000000000000000e+00
78		3.630780547701036e+08,1.100000000000000e-02
	-8.123375889535236e-03,2.213146138141344e-04
	1.000000000000000e-02,0.000000000000000e+00
79		3.801893963205636e+08,1.100000000000000e-02
	-8.123160869868697e-03,2.317536893016566e-04
	1.000000000000000e-02,0.000000000000000e+00
80		3.981071705534998e+08,1.100000000000000e-02
	-8.122924802847657e-03,2.426860196665925e-04
	1.000000000000000e-02,0.000000000000000e+00
81		4.168693834703380e+08,1.100000000000000e-02
	-8.122665597665703e-03,2.541350319193670e-04
	1.000000000000000e-02,0.000000000000000e+00
82		4.365158322401688e+08,1.100000000000000e-02
	-8.122380949943787e-03,2.661252817531906e-04
	1.000000000000000e-02,0.000000000000000e+00
83		4.570881896148780e+08,1.100000000000000e-02
	-8.122068318827216e-03,2.786825098372395e-04
	1.000000000000000e-02,0.000000000000000e+00
84		4.786300923226415e+08,1.100000000000000e-02
	-8.121724901439229e-03,2.918337010862753e-04
	1.000000000000000e-02,0.000000000000000e+00
85		5.011872336272756e+08,1.100000000000000e-02
	-8.121347604357941e-03,3.056071470616503e-04
	1.000000000000000e-02,0.000000000000000e+00
86		5.248074602497762e+08,1.100000000000000e-02
	-8.120933011738312e-03,3.200325116602243e-04
	1.000000000000000e-02,0.000000000000000e+00
87		5.495408738576283e+08,1.100000000000000e-02
	-8.120477349649585e-03,3.351409002467288e-04
	1.000000000000000e-02,0.000000000000000e+00
88		5.754399373371609e+08,1.100000000000000e-02
	-8.119976446140667e-03,3.509649323806890e-04
	1.000000000000000e-02,0.000000000000000e+00
89		6.025595860743620e+08,1.100000000000000e-02
	-8.119425686480263e-03,3.675388182800172e-04
	1.000000000000000e-02,0.000000000000000e+00
90		6.309573444801978e+08,1.100000000000000e-02
	-8.118819962944808e-03,3.848984391485033e-04
	1.000000000000000e-02,0.000000000000000e+00
91		6.606934480076008e+08,1.100000000000000e-02
	-8.118153618444313e-03,4.030814314719188e-04
	1.000000000000000e-02,0.000000000000000e+00
92		6.918309709189415e+08,1.100000000000000e-02
	-8.117420383183881e-03,4.221272753553180e-04
	1.000000000000000e-02,0.000000000000000e+00
93		7.244359600749954e+08,1.100000000000000e-02
	-8.116613303456083e-03,4.420773869298803e-04
	1.000000000000000e-02,0.000000000000000e+00
94		7.585775750291895e+08,1.100000000000000e-02
	-8.115724661546513e-03,4.629752147983399e-04
	1.000000000000000e-02,0.000000000000000e+00
95		7.943282347242875e+08,1.100000000000000e-02
	-8.114745885611768e-03,4.848663404102348e-04
	1.000000000000000e-02,0.000000000000000e+00
96		8.317637711026773e+08,1.100000000000000e-02
	-8.113667448256298e-03,5.077985821577873e-04
	1.000000000000000e-02,0.000000000000000e+00
97		8.709635899560874e+08,1.100000000000000e-02
	-8.112478752393393e-03,5.318221028555307e-04
	1.000000000000000e-02,0.000000000000000e+00
98		9.120108393559169e+08,1.100000000000000e-02
	-8.111168002828037e-03,5.569895201065241e-04
	1.000000000000000e-02,0.000000000000000e+00
99		9.549925860214435e+08,1.100000000000000e-02
	-8.109722061848932e-03,5.833560188592235e-04
	1.000000000000000e-02,0.000000000000000e+00
100		1.000000000000008e+09,1.100000000000000e-02
	-8.108126286968312e-03,6.109794652154216e-04
	1.000000000000000e-02,0.000000000000000e+00
101		1.047128548050908e+09,1.100000000000000e-02
	-8.106364348807923e-03,6.399205202543926e-04
	1.000000000000000e-02,0.000000000000000e+00
102		1.096478196143194e+09,1.100000000000000e-02
	-8.104418027006691e-03,6.702427522846668e-04
	1.000000000000000e-02,0.000000000000000e+00
103		1.148153621496892e+09,1.100000000000000e-02
	-8.102266981931713e-03,7.020127455163304e-04
	1.000000000000000e-02,0.000000000000000e+00
104		1.202264434617423e+09,1.100000000000000e-02
	-8.099888499923939e-03,7.353002026578903e-04
	1.000000000000000e-02,0.000000000000000e+00
105		1.258925411794178e+09,1.100000000000000e-02
	-8.097257209821561e-03,7.701780383788892e-04
	1.000000000000000e-02,0.000000000000000e+00
106		1.318256738556418e+09,1.100000000000000e-02
	-8.094344768599751e-03,8.067224599417062e-04
	1.000000000000000e-02,0.000000000000000e+00
107		1.380384264602896e+09,1.100000000000000e-02
	-8.091119514170650e-03,8.450130305965894e-04
	1.000000000000000e-02,0.000000000000000e+00
108		1.445439770745940e+09,1.100000000000000e-02
	-8.087546083732208e-03,8.851327105619073e-04
	1.000000000000000e-02,0.000000000000000e+00
109		1.513561248436221e+09,1.200000000000000e-02
	-8.083584996570910e-03,9.271678695934827e-04
	1.000000000000000e-02,0.000000000000000e+00
110		1.584893192461127e+09,1.200000000000000e-02
	-8.079192200946016e-03,9.712082643087966e-04
	1.000000000000000e-02,0.000000000000000e+00
111		1.659586907437575e+09,1.200000000000000e-02
	-8.074318585645756e-03,1.017346972611771e-03
	1.000000000000000e-02,0.000000000000000e+00
112		1.737800828749391e+09,1.200000000000000e-02
	-8.068909458039944e-03,1.065680276813245e-03
	1.000000000000000e-02,0.000000000000000e+00
113		1.819700858610000e+09,1.200000000000000e-02
	-8.062903991982550e-03,1.116307486427823e-03
	1.000000000000000e-02,0.000000000000000e+00
114		1.905460717963264e+09,1.200000000000000e-02
	-8.056234650753741e-03,1.169330691232003e-03
	1.000000000000000e-02,0.000000000000000e+00
115		1.995262314968898e+09,1.200000000000000e-02
	-8.048826592367329e-03,1.224854435088935e-03
	1.000000000000000e-02,0.000000000000000e+00
116		2.089296130854059e+09,1.200000000000000e-02
	-8.040597066974901e-03,1.282985301392103e-03
	1.000000000000000e-02,0.000000000000000e+00
117		2.187761623949573e+09,1.200000000000000e-02
	-8.031454818708194e-03,1.343831401871306e-03
	1.000000000000000e-02,0.000000000000000e+00
118		2.290867652767794e+09,1.200000000000000e-02
	-8.021299507013666e-03,1.407501762057100e-03
	1.000000000000000e-02,0.000000000000000e+00
119		2.398832919019513e+09,1.200000000000000e-02
	-8.010021165199858e-03,1.474105599019969e-03
	1.000000000000000e-02,0.000000000000000e+00
120		2.511886431509604e+09,1.200000000000000e-02
	-7.997499716344602e-03,1.543751490167905e-03
	1.000000000000000e-02,0.000000000000000e+00
121		2.630267991895407e+09,1.200000000000000e-02
	-7.983604568655029e-03,1.616546435937170e-03
	1.000000000000000e-02,0.000000000000000e+00
122		2.754228703338192e+09,1.200000000000000e-02
	-7.968194313560512e-03,1.692594824120524e-03
	1.000000000000000e-02,0.000000000000000e+00
123		2.884031503126633e+09,1.200000000000000e-02
	-7.951116549944882e-03,1.771997309239090e-03
	1.000000000000000e-02,0.000000000000000e+00
124		3.019951720402045e+09,1.200000000000000e-02
	-7.932207856685893e-03,1.854849626576092e-03
	1.000000000000000e-02,0.000000000000000e+00
125		3.162277660168409e+09,1.200000000000000e-02
	-7.911293932790045e-03,1.941241366944145e-03
	1.000000000000000e-02,0.000000000000000e+00
126		3.311311214825943e+09,1.200000000000000e-02
	-7.888189919676276e-03,2.031254744536039e-03
	1.000000000000000e-02,0.000000000000000e+00
127		3.467368504525350e+09,1.200000000000000e-02
	-7.862700913459969e-03,2.124963395797992e-03
	1.000000000000000e-02,0.000000000000000e+00
128		3.630780547701048e+09,1.200000000000000e-02
	-7.834622666446142e-03,2.222431251576309e-03
	1.000000000000000e-02,0.000000000000000e+00
129		3.801893963205649e+09,1.200000000000000e-02
	-7.803742466655824e-03,2.323711527199702e-03
	1.000000000000000e-02,0.000000000000000e+00
130		3.981071705535011e+09,1.200000000000000e-02
	-7.769840172473757e-03,2.428845875060833e-03
	1.000000000000000e-02,0.000000000000000e+00
131		4.168693834703395e+09,1.200000000000000e-02
	-7.732689367009679e-03,2.537863741117058e-03
	1.000000000000000e-02,0.000000000000000e+00
132		4.365158322401703e+09,1.200000000000000e-02
	-7.692058584286615e-03,2.650781960144663e-03
	1.000000000000000e-02,0.000000000000000e+00
133		4.570881896148796e+09,1.200000000000000e-02
	-7.647712547839082e-03,2.767604614356022e-03
	1.000000000000000e-02,0.000000000000000e+00
134		4.786300923226432e+09,1.200000000000000e-02
	-7.599413352752510e-03,2.888323166180666e-03
	1.000000000000000e-02,0.000000000000000e+00
135		5.011872336272774e+09,1.200000000000000e-02
	-7.546921515663754e-03,3.012916858965646e-03
	1.000000000000000e-02,0.000000000000000e+00
136		5.248074602497780e+09,1.200000000000000e-02
	-7.489996814778436e-03,3.141353359723080e-03
	1.000000000000000e-02,0.000000000000000e+00
137		5.495408738576303e+09,1.200000000000000e-02
	-7.428398844408262e-03,3.273589596800537e-03
	1.000000000000000e-02,0.000000000000000e+00
138		5.754399373371630e+09,1.200000000000000e-02
	-7.361887216521349e-03,3.409572723699856e-03
	1.000000000000000e-02,0.000000000000000e+00
139		6.025595860743641e+09,1.200000000000000e-02
	-7.290221355646019e-03,3.549241119659888e-03
	1.000000000000000e-02,0.000000000000000e+00
140		6.309573444801999e+09,1.200000000000000e-02
	-7.213159853105781e-03,3.692525319611189e-03
	1.000000000000000e-02,0.000000000000000e+00
141		6.606934480076031e+09,1.200000000000000e-02
	-7.130459371494832e-03,3.839348752288376e-03
	1.000000000000000e-02,0.000000000000000e+00
