Title: *inverter
Date: Sun Oct  9 22:53:14  2011
Plotname: DC transfer characteristic
Flags: real
No. Variables: 3
No. Points: 181     
Variables:
	0	v(v-sweep)	voltage
	1	i(vdc)	current
	2	v(out)	voltage
Values:
0		0.000000000000000e+00
	0.000000000000000e+00
	0.000000000000000e+00
1		1.000000000000000e-02
	-4.322602783681254e-05
	1.000000000000000e-02
2		2.000000000000000e-02
	-8.384838880870927e-05
	2.000000000000000e-02
3		3.000000000000000e-02
	-1.219180296709261e-04
	3.000000000000000e-02
4		4.000000000000000e-02
	-1.574853851578094e-04
	4.000000000000000e-02
5		5.000000000000000e-02
	-1.906006878658745e-04
	5.000000000000000e-02
6		6.000000000000000e-02
	-2.213144322422365e-04
	6.000000000000000e-02
7		7.000000000000001e-02
	-2.496780608742836e-04
	7.000000000000001e-02
8		8.000000000000000e-02
	-2.757449678262590e-04
	8.000000000000000e-02
9		9.000000000000000e-02
	-2.995719425056211e-04
	9.000000000000000e-02
10		9.999999999999999e-02
	-3.212211974379637e-04
	9.999999999999999e-02
11		1.100000000000000e-01
	-3.407631086990554e-04
	1.100000000000000e-01
12		1.200000000000000e-01
	-3.582797012624624e-04
	1.200000000000000e-01
13		1.300000000000000e-01
	-3.738686681073485e-04
	1.300000000000000e-01
14		1.400000000000000e-01
	-3.876472775572893e-04
	1.400000000000000e-01
15		1.500000000000000e-01
	-3.997549712597207e-04
	1.500000000000000e-01
16		1.600000000000000e-01
	-4.103530896447076e-04
	1.600000000000000e-01
17		1.700000000000000e-01
	-4.196204714600916e-04
	1.700000000000000e-01
18		1.800000000000000e-01
	-4.277449316037453e-04
	1.800000000000000e-01
19		1.900000000000000e-01
	-4.349123533502761e-04
	1.900000000000000e-01
20		2.000000000000000e-01
	-4.412962158804318e-04
	2.000000000000000e-01
21		2.100000000000000e-01
	-4.470500308961170e-04
	2.100000000000000e-01
22		2.200000000000001e-01
	-4.523037270444410e-04
	2.200000000000001e-01
23		2.300000000000001e-01
	-4.571635471810753e-04
	2.300000000000001e-01
24		2.400000000000001e-01
	-4.617142531016068e-04
	2.400000000000001e-01
25		2.500000000000001e-01
	-4.660223982417369e-04
	2.500000000000001e-01
26		2.600000000000001e-01
	-4.701397767361877e-04
	2.600000000000001e-01
27		2.700000000000001e-01
	-4.741065575957457e-04
	2.700000000000001e-01
28		2.800000000000001e-01
	-4.779539105298360e-04
	2.800000000000001e-01
29		2.900000000000001e-01
	-4.817061028077012e-04
	2.900000000000001e-01
30		3.000000000000001e-01
	-4.853821264965533e-04
	3.000000000000001e-01
31		3.100000000000001e-01
	-4.889969407163970e-04
	3.100000000000001e-01
32		3.200000000000001e-01
	-4.925624120610989e-04
	3.200000000000001e-01
33		3.300000000000001e-01
	-4.960880243504632e-04
	3.300000000000001e-01
34		3.400000000000001e-01
	-4.995814145801257e-04
	3.400000000000001e-01
35		3.500000000000001e-01
	-5.030487788237504e-04
	3.500000000000001e-01
36		3.600000000000002e-01
	-5.064951810430988e-04
	3.600000000000002e-01
37		3.700000000000002e-01
	-5.099247893436005e-04
	3.700000000000002e-01
38		3.800000000000002e-01
	-5.133410578478388e-04
	3.800000000000002e-01
39		3.900000000000002e-01
	-5.167468676275240e-04
	3.900000000000002e-01
40		4.000000000000002e-01
	-5.201446366481905e-04
	4.000000000000002e-01
41		4.100000000000002e-01
	-5.235364061220651e-04
	4.100000000000002e-01
42		4.200000000000002e-01
	-5.269239087874628e-04
	4.200000000000002e-01
43		4.300000000000002e-01
	-5.303086232535488e-04
	4.300000000000002e-01
44		4.400000000000002e-01
	-5.336918175322230e-04
	4.400000000000002e-01
45		4.500000000000002e-01
	-5.370745841257333e-04
	4.500000000000002e-01
46		4.600000000000002e-01
	-5.404578684781300e-04
	4.600000000000002e-01
47		4.700000000000003e-01
	-5.438424921793207e-04
	4.700000000000003e-01
48		4.800000000000003e-01
	-5.472291719949072e-04
	4.800000000000003e-01
49		4.900000000000003e-01
	-5.506185355561506e-04
	4.900000000000003e-01
50		5.000000000000002e-01
	-5.540111343625658e-04
	5.000000000000002e-01
51		5.100000000000002e-01
	-5.574074546103957e-04
	5.100000000000002e-01
52		5.200000000000002e-01
	-5.608079262529713e-04
	5.200000000000002e-01
53		5.300000000000002e-01
	-5.642129306158576e-04
	5.300000000000002e-01
54		5.400000000000003e-01
	-5.676228068249873e-04
	5.400000000000003e-01
55		5.500000000000003e-01
	-5.710378572552844e-04
	5.500000000000003e-01
56		5.600000000000003e-01
	-5.744583521673735e-04
	5.600000000000003e-01
57		5.700000000000003e-01
	-5.778845336683680e-04
	5.700000000000003e-01
58		5.800000000000003e-01
	-5.813166191076413e-04
	5.800000000000003e-01
59		5.900000000000003e-01
	-5.847548039983685e-04
	5.900000000000003e-01
60		6.000000000000003e-01
	-5.881992645395208e-04
	6.000000000000003e-01
61		6.100000000000003e-01
	-5.916501597999879e-04
	6.100000000000003e-01
62		6.200000000000003e-01
	-5.951076336159593e-04
	6.200000000000003e-01
63		6.300000000000003e-01
	-5.985718162441339e-04
	6.300000000000003e-01
64		6.400000000000003e-01
	-6.020428258063012e-04
	6.400000000000003e-01
65		6.500000000000004e-01
	-6.055207695551227e-04
	6.500000000000004e-01
66		6.600000000000004e-01
	-6.090057449861787e-04
	6.600000000000004e-01
67		6.700000000000004e-01
	-6.124978408174688e-04
	6.700000000000004e-01
68		6.800000000000004e-01
	-6.159971378542818e-04
	6.800000000000004e-01
69		6.900000000000004e-01
	-6.195037097546801e-04
	6.900000000000004e-01
70		7.000000000000004e-01
	-6.230176237085678e-04
	7.000000000000004e-01
71		7.100000000000004e-01
	-6.265389410414363e-04
	7.100000000000004e-01
72		7.200000000000004e-01
	-6.300677177522989e-04
	7.200000000000004e-01
73		7.300000000000004e-01
	-6.336040049939679e-04
	7.300000000000004e-01
74		7.400000000000004e-01
	-6.371478495027244e-04
	7.400000000000004e-01
75		7.500000000000004e-01
	-6.406992939834506e-04
	7.500000000000004e-01
76		7.600000000000005e-01
	-6.442583774554928e-04
	7.600000000000005e-01
77		7.700000000000005e-01
	-6.478251355638146e-04
	7.700000000000005e-01
78		7.800000000000005e-01
	-6.513996008594259e-04
	7.800000000000005e-01
79		7.900000000000005e-01
	-6.549818030525466e-04
	7.900000000000005e-01
80		8.000000000000005e-01
	-6.585717692415325e-04
	8.000000000000005e-01
81		8.100000000000005e-01
	-6.621695241202163e-04
	8.100000000000005e-01
82		8.200000000000005e-01
	-6.657750901659937e-04
	8.200000000000005e-01
83		8.300000000000005e-01
	-6.693884878106956e-04
	8.300000000000005e-01
84		8.400000000000005e-01
	-6.730097355960535e-04
	8.400000000000005e-01
85		8.500000000000005e-01
	-6.766388503153450e-04
	8.500000000000005e-01
86		8.600000000000005e-01
	-6.802758471426278e-04
	8.600000000000005e-01
87		8.700000000000006e-01
	-6.839207397508103e-04
	8.700000000000006e-01
88		8.800000000000006e-01
	-6.875735404196633e-04
	8.800000000000006e-01
89		8.900000000000006e-01
	-6.912342601347525e-04
	8.900000000000006e-01
90		9.000000000000006e-01
	-6.949029086781693e-04
	9.000000000000006e-01
91		9.100000000000006e-01
	-6.985794947118459e-04
	9.100000000000006e-01
92		9.200000000000006e-01
	-7.022640258541385e-04
	9.200000000000006e-01
93		9.300000000000006e-01
	-7.059565087503156e-04
	9.300000000000006e-01
94		9.400000000000006e-01
	-7.096569491375020e-04
	9.400000000000006e-01
95		9.500000000000006e-01
	-7.133653519045814e-04
	9.500000000000006e-01
96		9.600000000000006e-01
	-7.170817211475049e-04
	9.600000000000006e-01
97		9.700000000000006e-01
	-7.208060602204168e-04
	9.700000000000006e-01
98		9.800000000000006e-01
	-7.245383717829579e-04
	9.800000000000006e-01
99		9.900000000000007e-01
	-7.282786578440746e-04
	9.900000000000007e-01
100		1.000000000000001e+00
	-7.320269198026307e-04
	1.000000000000001e+00
101		1.010000000000001e+00
	-7.357831584850959e-04
	1.010000000000001e+00
102		1.020000000000001e+00
	-7.395473741805452e-04
	1.020000000000001e+00
103		1.030000000000001e+00
	-7.433195666731986e-04
	1.030000000000001e+00
104		1.040000000000001e+00
	-7.470997352726955e-04
	1.040000000000001e+00
105		1.050000000000001e+00
	-7.508878788422874e-04
	1.050000000000001e+00
106		1.060000000000001e+00
	-7.546839958251097e-04
	1.060000000000001e+00
107		1.070000000000001e+00
	-7.584880842686988e-04
	1.070000000000001e+00
108		1.080000000000001e+00
	-7.623001418478631e-04
	1.080000000000001e+00
109		1.090000000000001e+00
	-7.661201658860638e-04
	1.090000000000001e+00
110		1.100000000000001e+00
	-7.699481533754009e-04
	1.100000000000001e+00
111		1.110000000000001e+00
	-7.737841009953126e-04
	1.110000000000001e+00
112		1.120000000000001e+00
	-7.776280051300868e-04
	1.120000000000001e+00
113		1.130000000000001e+00
	-7.814798618852707e-04
	1.130000000000001e+00
114		1.140000000000001e+00
	-7.853396671030552e-04
	1.140000000000001e+00
115		1.150000000000001e+00
	-7.892074163767176e-04
	1.150000000000001e+00
116		1.160000000000001e+00
	-7.930831050641764e-04
	1.160000000000001e+00
117		1.170000000000001e+00
	-7.969667283007310e-04
	1.170000000000001e+00
118		1.180000000000001e+00
	-8.008582810110449e-04
	1.180000000000001e+00
119		1.190000000000001e+00
	-8.047577579204095e-04
	1.190000000000001e+00
120		1.200000000000001e+00
	-8.086651535653604e-04
	1.200000000000001e+00
121		1.210000000000001e+00
	-8.125804623036716e-04
	1.210000000000001e+00
122		1.220000000000001e+00
	-8.165036783237706e-04
	1.220000000000001e+00
123		1.230000000000001e+00
	-8.204347956536375e-04
	1.230000000000001e+00
124		1.240000000000001e+00
	-8.243738081691802e-04
	1.240000000000001e+00
125		1.250000000000001e+00
	-8.283207096021573e-04
	1.250000000000001e+00
126		1.260000000000001e+00
	-8.322754935476604e-04
	1.260000000000001e+00
127		1.270000000000001e+00
	-8.362381534711856e-04
	1.270000000000001e+00
128		1.280000000000001e+00
	-8.402086827153238e-04
	1.280000000000001e+00
129		1.290000000000001e+00
	-8.441870745060891e-04
	1.290000000000001e+00
130		1.300000000000001e+00
	-8.481733219589139e-04
	1.300000000000001e+00
131		1.310000000000001e+00
	-8.521674180843270e-04
	1.310000000000001e+00
132		1.320000000000001e+00
	-8.561693557933343e-04
	1.320000000000001e+00
133		1.330000000000001e+00
	-8.601791279025215e-04
	1.330000000000001e+00
134		1.340000000000001e+00
	-8.641967271388954e-04
	1.340000000000001e+00
135		1.350000000000001e+00
	-8.682221461444807e-04
	1.350000000000001e+00
136		1.360000000000001e+00
	-8.722553774806839e-04
	1.360000000000001e+00
137		1.370000000000001e+00
	-8.762964136324327e-04
	1.370000000000001e+00
138		1.380000000000001e+00
	-8.803452470121242e-04
	1.380000000000001e+00
139		1.390000000000001e+00
	-8.844018699633709e-04
	1.390000000000001e+00
140		1.400000000000001e+00
	-8.884662747645594e-04
	1.400000000000001e+00
141		1.410000000000001e+00
	-8.925384536322486e-04
	1.410000000000001e+00
142		1.420000000000001e+00
	-8.966183987243986e-04
	1.420000000000001e+00
143		1.430000000000001e+00
	-9.007061021434458e-04
	1.430000000000001e+00
144		1.440000000000001e+00
	-9.048015559392356e-04
	1.440000000000001e+00
145		1.450000000000001e+00
	-9.089047521118187e-04
	1.450000000000001e+00
146		1.460000000000001e+00
	-9.130156826141145e-04
	1.460000000000001e+00
147		1.470000000000001e+00
	-9.171343393544550e-04
	1.470000000000001e+00
148		1.480000000000001e+00
	-9.212607141990120e-04
	1.480000000000001e+00
149		1.490000000000001e+00
	-9.253947989741127e-04
	1.490000000000001e+00
150		1.500000000000001e+00
	-9.295365854684560e-04
	1.500000000000001e+00
151		1.510000000000001e+00
	-9.336860654352251e-04
	1.510000000000001e+00
152		1.520000000000001e+00
	-9.378432305941030e-04
	1.520000000000001e+00
153		1.530000000000001e+00
	-9.420080726332202e-04
	1.530000000000001e+00
154		1.540000000000001e+00
	-9.461805832109815e-04
	1.540000000000001e+00
155		1.550000000000001e+00
	-9.503607539578552e-04
	1.550000000000001e+00
156		1.560000000000001e+00
	-9.545485764780487e-04
	1.560000000000001e+00
157		1.570000000000001e+00
	-9.587440423511402e-04
	1.570000000000001e+00
158		1.580000000000001e+00
	-9.629471431336231e-04
	1.580000000000001e+00
159		1.590000000000001e+00
	-9.671578703603960e-04
	1.590000000000001e+00
160		1.600000000000001e+00
	-9.713762155461851e-04
	1.600000000000001e+00
161		1.610000000000001e+00
	-9.756021701869109e-04
	1.610000000000001e+00
162		1.620000000000001e+00
	-9.798357257609967e-04
	1.620000000000001e+00
163		1.630000000000001e+00
	-9.840768737306243e-04
	1.630000000000001e+00
164		1.640000000000001e+00
	-9.883256055429354e-04
	1.640000000000001e+00
165		1.650000000000001e+00
	-9.925819126311963e-04
	1.650000000000001e+00
166		1.660000000000001e+00
	-9.968457864158978e-04
	1.660000000000001e+00
167		1.670000000000001e+00
	-1.001117218305821e-03
	1.670000000000001e+00
168		1.680000000000001e+00
	-1.005396199699071e-03
	1.680000000000001e+00
169		1.690000000000001e+00
	-1.009682721984045e-03
	1.690000000000001e+00
170		1.700000000000001e+00
	-1.013976776540389e-03
	1.700000000000001e+00
171		1.710000000000001e+00
	-1.018278354739898e-03
	1.710000000000001e+00
172		1.720000000000001e+00
	-1.022587447947390e-03
	1.720000000000001e+00
173		1.730000000000001e+00
	-1.026904047521548e-03
	1.730000000000001e+00
174		1.740000000000001e+00
	-1.031228144815724e-03
	1.740000000000001e+00
175		1.750000000000001e+00
	-1.035559731178713e-03
	1.750000000000001e+00
176		1.760000000000001e+00
	-1.039898797955507e-03
	1.760000000000001e+00
177		1.770000000000001e+00
	-1.044245336488010e-03
	1.770000000000001e+00
178		1.780000000000001e+00
	-1.048599338115721e-03
	1.780000000000001e+00
179		1.790000000000001e+00
	-1.052960794176417e-03
	1.790000000000001e+00
180		1.800000000000001e+00
	-1.057329696006783e-03
	1.800000000000001e+00
