Title: *inverter
Date: Fri Sep 23 15:49:17  2011
Plotname: AC Analysis
Flags: complex
No. Variables: 3
No. Points: 151     
Variables:
	0	frequency	frequency	grid=3
	1	v(out)	voltage
	2	v(in1)	voltage
Values:
0		1.000000000000000e+07,1.000000000000000e-02
	6.467355265748810e-02,-1.943373059885523e-04
	1.000000000000000e-02,0.000000000000000e+00
1		1.047128548050900e+07,1.000000000000000e-02
	6.467350467997664e-02,-2.034960206386650e-04
	1.000000000000000e-02,0.000000000000000e+00
2		1.096478196143185e+07,1.000000000000000e-02
	6.467345207374033e-02,-2.130863543727358e-04
	1.000000000000000e-02,0.000000000000000e+00
3		1.148153621496883e+07,1.000000000000000e-02
	6.467339439222006e-02,-2.231286461285514e-04
	1.000000000000000e-02,0.000000000000000e+00
4		1.202264434617413e+07,1.000000000000000e-02
	6.467333114577592e-02,-2.336441929969523e-04
	1.000000000000000e-02,0.000000000000000e+00
5		1.258925411794168e+07,1.000000000000000e-02
	6.467326179753129e-02,-2.446552953201876e-04
	1.000000000000000e-02,0.000000000000000e+00
6		1.318256738556408e+07,1.000000000000000e-02
	6.467318575881620e-02,-2.561853039070962e-04
	1.000000000000000e-02,0.000000000000000e+00
7		1.380384264602885e+07,1.000000000000000e-02
	6.467310238417104e-02,-2.682586694636047e-04
	1.000000000000000e-02,0.000000000000000e+00
8		1.445439770745928e+07,1.000000000000000e-02
	6.467301096586839e-02,-2.809009943414852e-04
	1.000000000000000e-02,0.000000000000000e+00
9		1.513561248436209e+07,1.000000000000000e-02
	6.467291072790669e-02,-2.941390867129507e-04
	1.000000000000000e-02,0.000000000000000e+00
10		1.584893192461115e+07,1.000000000000000e-02
	6.467280081942442e-02,-3.080010172834890e-04
	1.000000000000000e-02,0.000000000000000e+00
11		1.659586907437562e+07,1.000000000000000e-02
	6.467268030747918e-02,-3.225161786603446e-04
	1.000000000000000e-02,0.000000000000000e+00
12		1.737800828749377e+07,1.000000000000000e-02
	6.467254816913055e-02,-3.377153474992681e-04
	1.000000000000000e-02,0.000000000000000e+00
13		1.819700858609985e+07,1.000000000000000e-02
	6.467240328275928e-02,-3.536307495575527e-04
	1.000000000000000e-02,0.000000000000000e+00
14		1.905460717963249e+07,1.000000000000000e-02
	6.467224441854950e-02,-3.702961277869781e-04
	1.000000000000000e-02,0.000000000000000e+00
15		1.995262314968882e+07,1.000000000000000e-02
	6.467207022805324e-02,-3.877468136060872e-04
	1.000000000000000e-02,0.000000000000000e+00
16		2.089296130854042e+07,1.100000000000000e-02
	6.467187923274866e-02,-4.060198014972212e-04
	1.000000000000000e-02,0.000000000000000e+00
17		2.187761623949555e+07,1.100000000000000e-02
	6.467166981149523e-02,-4.251538270799345e-04
	1.000000000000000e-02,0.000000000000000e+00
18		2.290867652767776e+07,1.100000000000000e-02
	6.467144018677951e-02,-4.451894488188179e-04
	1.000000000000000e-02,0.000000000000000e+00
19		2.398832919019494e+07,1.100000000000000e-02
	6.467118840963490e-02,-4.661691335303293e-04
	1.000000000000000e-02,0.000000000000000e+00
20		2.511886431509584e+07,1.100000000000000e-02
	6.467091234310791e-02,-4.881373458600174e-04
	1.000000000000000e-02,0.000000000000000e+00
21		2.630267991895386e+07,1.100000000000000e-02
	6.467060964413096e-02,-5.111406419084512e-04
	1.000000000000000e-02,0.000000000000000e+00
22		2.754228703338171e+07,1.100000000000000e-02
	6.467027774364778e-02,-5.352277671912785e-04
	1.000000000000000e-02,0.000000000000000e+00
23		2.884031503126611e+07,1.100000000000000e-02
	6.466991382482402e-02,-5.604497591260759e-04
	1.000000000000000e-02,0.000000000000000e+00
24		3.019951720402022e+07,1.100000000000000e-02
	6.466951479915815e-02,-5.868600542460192e-04
	1.000000000000000e-02,0.000000000000000e+00
25		3.162277660168386e+07,1.100000000000000e-02
	6.466907728029093e-02,-6.145146003478558e-04
	1.000000000000000e-02,0.000000000000000e+00
26		3.311311214825918e+07,1.100000000000000e-02
	6.466859755529190e-02,-6.434719737891797e-04
	1.000000000000000e-02,0.000000000000000e+00
27		3.467368504525324e+07,1.100000000000000e-02
	6.466807155318048e-02,-6.737935021575501e-04
	1.000000000000000e-02,0.000000000000000e+00
28		3.630780547701021e+07,1.100000000000000e-02
	6.466749481041557e-02,-7.055433925414907e-04
	1.000000000000000e-02,0.000000000000000e+00
29		3.801893963205621e+07,1.100000000000000e-02
	6.466686243306267e-02,-7.387888656408488e-04
	1.000000000000000e-02,0.000000000000000e+00
30		3.981071705534982e+07,1.100000000000000e-02
	6.466616905531881e-02,-7.736002959612303e-04
	1.000000000000000e-02,0.000000000000000e+00
31		4.168693834703364e+07,1.100000000000000e-02
	6.466540879404641e-02,-8.100513583442929e-04
	1.000000000000000e-02,0.000000000000000e+00
32		4.365158322401670e+07,1.100000000000000e-02
	6.466457519893182e-02,-8.482191810923334e-04
	1.000000000000000e-02,0.000000000000000e+00
33		4.570881896148762e+07,1.100000000000000e-02
	6.466366119785009e-02,-8.881845059518882e-04
	1.000000000000000e-02,0.000000000000000e+00
34		4.786300923226396e+07,1.100000000000000e-02
	6.466265903697548e-02,-9.300318552267094e-04
	1.000000000000000e-02,0.000000000000000e+00
35		5.011872336272737e+07,1.100000000000000e-02
	6.466156021513433e-02,-9.738497062954142e-04
	1.000000000000000e-02,0.000000000000000e+00
36		5.248074602497741e+07,1.100000000000000e-02
	6.466035541184958e-02,-1.019730673813122e-03
	1.000000000000000e-02,0.000000000000000e+00
37		5.495408738576262e+07,1.100000000000000e-02
	6.465903440847254e-02,-1.067771699879258e-03
	1.000000000000000e-02,0.000000000000000e+00
38		5.754399373371587e+07,1.100000000000000e-02
	6.465758600174128e-02,-1.118074252455204e-03
	1.000000000000000e-02,0.000000000000000e+00
39		6.025595860743596e+07,1.100000000000000e-02
	6.465599790904267e-02,-1.170744532315319e-03
	1.000000000000000e-02,0.000000000000000e+00
40		6.309573444801953e+07,1.100000000000000e-02
	6.465425666458537e-02,-1.225893688812665e-03
	1.000000000000000e-02,0.000000000000000e+00
41		6.606934480075981e+07,1.100000000000000e-02
	6.465234750561820e-02,-1.283638044736234e-03
	1.000000000000000e-02,0.000000000000000e+00
42		6.918309709189388e+07,1.100000000000000e-02
	6.465025424774558e-02,-1.344099330529081e-03
	1.000000000000000e-02,0.000000000000000e+00
43		7.244359600749926e+07,1.100000000000000e-02
	6.464795914830304e-02,-1.407404928126038e-03
	1.000000000000000e-02,0.000000000000000e+00
44		7.585775750291865e+07,1.100000000000000e-02
	6.464544275665970e-02,-1.473688124655010e-03
	1.000000000000000e-02,0.000000000000000e+00
45		7.943282347242844e+07,1.100000000000000e-02
	6.464268375020719e-02,-1.543088376226556e-03
	1.000000000000000e-02,0.000000000000000e+00
46		8.317637711026742e+07,1.100000000000000e-02
	6.463965875468108e-02,-1.615751582011747e-03
	1.000000000000000e-02,0.000000000000000e+00
47		8.709635899560840e+07,1.100000000000000e-02
	6.463634214733420e-02,-1.691830368777233e-03
	1.000000000000000e-02,0.000000000000000e+00
48		9.120108393559134e+07,1.100000000000000e-02
	6.463270584134521e-02,-1.771484386008074e-03
	1.000000000000000e-02,0.000000000000000e+00
49		9.549925860214399e+07,1.100000000000000e-02
	6.462871904969768e-02,-1.854880611701879e-03
	1.000000000000000e-02,0.000000000000000e+00
50		1.000000000000004e+08,1.100000000000000e-02
	6.462434802660315e-02,-1.942193668860914e-03
	1.000000000000000e-02,0.000000000000000e+00
51		1.047128548050904e+08,1.100000000000000e-02
	6.461955578436711e-02,-2.033606152640328e-03
	1.000000000000000e-02,0.000000000000000e+00
52		1.096478196143190e+08,1.100000000000000e-02
	6.461430178340773e-02,-2.129308968028977e-03
	1.000000000000000e-02,0.000000000000000e+00
53		1.148153621496888e+08,1.100000000000000e-02
	6.460854159293120e-02,-2.229501677842049e-03
	1.000000000000000e-02,0.000000000000000e+00
54		1.202264434617418e+08,1.200000000000000e-02
	6.460222651954597e-02,-2.334392860689843e-03
	1.000000000000000e-02,0.000000000000000e+00
55		1.258925411794173e+08,1.200000000000000e-02
	6.459530320085961e-02,-2.444200478451609e-03
	1.000000000000000e-02,0.000000000000000e+00
56		1.318256738556413e+08,1.200000000000000e-02
	6.458771316084232e-02,-2.559152252624481e-03
	1.000000000000000e-02,0.000000000000000e+00
57		1.380384264602891e+08,1.200000000000000e-02
	6.457939232346604e-02,-2.679486048731528e-03
	1.000000000000000e-02,0.000000000000000e+00
58		1.445439770745934e+08,1.200000000000000e-02
	6.457027048082817e-02,-2.805450267755929e-03
	1.000000000000000e-02,0.000000000000000e+00
59		1.513561248436215e+08,1.200000000000000e-02
	6.456027071165232e-02,-2.937304243315728e-03
	1.000000000000000e-02,0.000000000000000e+00
60		1.584893192461121e+08,1.200000000000000e-02
	6.454930874571818e-02,-3.075318643000295e-03
	1.000000000000000e-02,0.000000000000000e+00
61		1.659586907437569e+08,1.200000000000000e-02
	6.453729226941037e-02,-3.219775871949705e-03
	1.000000000000000e-02,0.000000000000000e+00
62		1.737800828749384e+08,1.200000000000000e-02
	6.452412016719539e-02,-3.370970476365316e-03
	1.000000000000000e-02,0.000000000000000e+00
63		1.819700858609993e+08,1.200000000000000e-02
	6.450968169343045e-02,-3.529209544186101e-03
	1.000000000000000e-02,0.000000000000000e+00
64		1.905460717963257e+08,1.200000000000000e-02
	6.449385556848616e-02,-3.694813099642727e-03
	1.000000000000000e-02,0.000000000000000e+00
65		1.995262314968890e+08,1.200000000000000e-02
	6.447650899272325e-02,-3.868114487800282e-03
	1.000000000000000e-02,0.000000000000000e+00
66		2.089296130854051e+08,1.200000000000000e-02
	6.445749657140817e-02,-4.049460744510573e-03
	1.000000000000000e-02,0.000000000000000e+00
67		2.187761623949564e+08,1.200000000000000e-02
	6.443665914318483e-02,-4.239212946404029e-03
	1.000000000000000e-02,0.000000000000000e+00
68		2.290867652767785e+08,1.200000000000000e-02
	6.441382250424701e-02,-4.437746534646567e-03
	1.000000000000000e-02,0.000000000000000e+00
69		2.398832919019504e+08,1.200000000000000e-02
	6.438879601988358e-02,-4.645451605153446e-03
	1.000000000000000e-02,0.000000000000000e+00
70		2.511886431509594e+08,1.200000000000000e-02
	6.436137111460670e-02,-4.862733156774349e-03
	1.000000000000000e-02,0.000000000000000e+00
71		2.630267991895397e+08,1.200000000000000e-02
	6.433131963163261e-02,-5.090011287623859e-03
	1.000000000000000e-02,0.000000000000000e+00
72		2.754228703338182e+08,1.200000000000000e-02
	6.429839205207960e-02,-5.327721328209831e-03
	1.000000000000000e-02,0.000000000000000e+00
73		2.884031503126622e+08,1.200000000000000e-02
	6.426231556389726e-02,-5.576313898288319e-03
	1.000000000000000e-02,0.000000000000000e+00
74		3.019951720402034e+08,1.200000000000000e-02
	6.422279197026672e-02,-5.836254872424904e-03
	1.000000000000000e-02,0.000000000000000e+00
75		3.162277660168398e+08,1.200000000000000e-02
	6.417949542704152e-02,-6.108025237045162e-03
	1.000000000000000e-02,0.000000000000000e+00
76		3.311311214825931e+08,1.200000000000000e-02
	6.413206999876551e-02,-6.392120819286360e-03
	1.000000000000000e-02,0.000000000000000e+00
77		3.467368504525337e+08,1.200000000000000e-02
	6.408012702295150e-02,-6.689051865193100e-03
	1.000000000000000e-02,0.000000000000000e+00
78		3.630780547701036e+08,1.200000000000000e-02
	6.402324227267593e-02,-6.999342441705378e-03
	1.000000000000000e-02,0.000000000000000e+00
79		3.801893963205636e+08,1.200000000000000e-02
	6.396095290820779e-02,-7.323529633444218e-03
	1.000000000000000e-02,0.000000000000000e+00
80		3.981071705534998e+08,1.200000000000000e-02
	6.389275420940541e-02,-7.662162501483572e-03
	1.000000000000000e-02,0.000000000000000e+00
81		4.168693834703380e+08,1.200000000000000e-02
	6.381809608207452e-02,-8.015800767089057e-03
	1.000000000000000e-02,0.000000000000000e+00
82		4.365158322401688e+08,1.200000000000000e-02
	6.373637933347727e-02,-8.385013178789039e-03
	1.000000000000000e-02,0.000000000000000e+00
83		4.570881896148780e+08,1.200000000000000e-02
	6.364695171483215e-02,-8.770375516115951e-03
	1.000000000000000e-02,0.000000000000000e+00
84		4.786300923226415e+08,1.200000000000000e-02
	6.354910373208371e-02,-9.172468177920445e-03
	1.000000000000000e-02,0.000000000000000e+00
85		5.011872336272756e+08,1.200000000000000e-02
	6.344206423059828e-02,-9.591873297338207e-03
	1.000000000000000e-02,0.000000000000000e+00
86		5.248074602497762e+08,1.200000000000000e-02
	6.332499576493944e-02,-1.002917131932071e-02
	1.000000000000000e-02,0.000000000000000e+00
87		5.495408738576283e+08,1.200000000000000e-02
	6.319698977168842e-02,-1.048493697019451e-02
	1.000000000000000e-02,0.000000000000000e+00
88		5.754399373371609e+08,1.200000000000000e-02
	6.305706157162803e-02,-1.095973454209283e-02
	1.000000000000000e-02,0.000000000000000e+00
89		6.025595860743620e+08,1.200000000000000e-02
	6.290414523774633e-02,-1.145411240845408e-02
	1.000000000000000e-02,0.000000000000000e+00
90		6.309573444801978e+08,1.200000000000000e-02
	6.273708837770973e-02,-1.196859668030938e-02
	1.000000000000000e-02,0.000000000000000e+00
91		6.606934480076008e+08,1.200000000000000e-02
	6.255464689398743e-02,-1.250368390705393e-02
	1.000000000000000e-02,0.000000000000000e+00
92		6.918309709189415e+08,1.200000000000000e-02
	6.235547980197652e-02,-1.305983272017129e-02
	1.000000000000000e-02,0.000000000000000e+00
93		7.244359600749954e+08,1.200000000000000e-02
	6.213814420657456e-02,-1.363745431440756e-02
	1.000000000000000e-02,0.000000000000000e+00
94		7.585775750291895e+08,1.200000000000000e-02
	6.190109056095378e-02,-1.423690165874767e-02
	1.000000000000000e-02,0.000000000000000e+00
95		7.943282347242875e+08,1.300000000000000e-02
	6.164265835804839e-02,-1.485845732993551e-02
	1.000000000000000e-02,0.000000000000000e+00
96		8.317637711026773e+08,1.300000000000000e-02
	6.136107243564864e-02,-1.550231986506868e-02
	1.000000000000000e-02,0.000000000000000e+00
97		8.709635899560874e+08,1.300000000000000e-02
	6.105444011006659e-02,-1.616858853802314e-02
	1.000000000000000e-02,0.000000000000000e+00
98		9.120108393559169e+08,1.300000000000000e-02
	6.072074939101132e-02,-1.685724647834592e-02
	1.000000000000000e-02,0.000000000000000e+00
99		9.549925860214435e+08,1.300000000000000e-02
	6.035786857127282e-02,-1.756814207220677e-02
	1.000000000000000e-02,0.000000000000000e+00
100		1.000000000000008e+09,1.300000000000000e-02
	5.996354752845785e-02,-1.830096861462062e-02
	1.000000000000000e-02,0.000000000000000e+00
101		1.047128548050908e+09,1.300000000000000e-02
	5.953542112135660e-02,-1.905524222220014e-02
	1.000000000000000e-02,0.000000000000000e+00
102		1.096478196143194e+09,1.300000000000000e-02
	5.907101510905702e-02,-1.983027806804167e-02
	1.000000000000000e-02,0.000000000000000e+00
103		1.148153621496892e+09,1.300000000000000e-02
	5.856775506458343e-02,-2.062516506689259e-02
	1.000000000000000e-02,0.000000000000000e+00
104		1.202264434617423e+09,1.300000000000000e-02
	5.802297879380554e-02,-2.143873922130439e-02
	1.000000000000000e-02,0.000000000000000e+00
105		1.258925411794178e+09,1.300000000000000e-02
	5.743395280100923e-02,-2.226955593958921e-02
	1.000000000000000e-02,0.000000000000000e+00
106		1.318256738556418e+09,1.300000000000000e-02
	5.679789336028395e-02,-2.311586175510975e-02
	1.000000000000000e-02,0.000000000000000e+00
107		1.380384264602896e+09,1.300000000000000e-02
	5.611199275124598e-02,-2.397556601397603e-02
	1.000000000000000e-02,0.000000000000000e+00
108		1.445439770745940e+09,1.300000000000000e-02
	5.537345119212665e-02,-2.484621325364936e-02
	1.000000000000000e-02,0.000000000000000e+00
109		1.513561248436221e+09,1.300000000000000e-02
	5.457951494565209e-02,-2.572495716569198e-02
	1.000000000000000e-02,0.000000000000000e+00
110		1.584893192461127e+09,1.300000000000000e-02
	5.372752097564658e-02,-2.660853721727944e-02
	1.000000000000000e-02,0.000000000000000e+00
111		1.659586907437575e+09,1.300000000000000e-02
	5.281494838707243e-02,-2.749325919085111e-02
	1.000000000000000e-02,0.000000000000000e+00
112		1.737800828749391e+09,1.300000000000000e-02
	5.183947668208504e-02,-2.837498107913252e-02
	1.000000000000000e-02,0.000000000000000e+00
113		1.819700858610000e+09,1.300000000000000e-02
	5.079905060403108e-02,-2.924910593012142e-02
	1.000000000000000e-02,0.000000000000000e+00
114		1.905460717963264e+09,1.300000000000000e-02
	4.969195101733440e-02,-3.011058335652861e-02
	1.000000000000000e-02,0.000000000000000e+00
115		1.995262314968898e+09,1.300000000000000e-02
	4.851687088526110e-02,-3.095392148660286e-02
	1.000000000000000e-02,0.000000000000000e+00
116		2.089296130854059e+09,1.300000000000000e-02
	4.727299496668835e-02,-3.177321111605073e-02
	1.000000000000000e-02,0.000000000000000e+00
117		2.187761623949573e+09,1.300000000000000e-02
	4.596008137139867e-02,-3.256216370095383e-02
	1.000000000000000e-02,0.000000000000000e+00
118		2.290867652767794e+09,1.300000000000000e-02
	4.457854261352639e-02,-3.331416458768371e-02
	1.000000000000000e-02,0.000000000000000e+00
119		2.398832919019513e+09,1.300000000000000e-02
	4.312952331581191e-02,-3.402234249057689e-02
	1.000000000000000e-02,0.000000000000000e+00
120		2.511886431509604e+09,1.300000000000000e-02
	4.161497128283410e-02,-3.467965569194221e-02
	1.000000000000000e-02,0.000000000000000e+00
121		2.630267991895407e+09,1.300000000000000e-02
	4.003769832558116e-02,-3.527899475339867e-02
	1.000000000000000e-02,0.000000000000000e+00
122		2.754228703338192e+09,1.300000000000000e-02
	3.840142703220421e-02,-3.581330070862880e-02
	1.000000000000000e-02,0.000000000000000e+00
123		2.884031503126633e+09,1.300000000000000e-02
	3.671081968890565e-02,-3.627569678827096e-02
	1.000000000000000e-02,0.000000000000000e+00
124		3.019951720402045e+09,1.300000000000000e-02
	3.497148580169451e-02,-3.665963075834851e-02
	1.000000000000000e-02,0.000000000000000e+00
125		3.162277660168409e+09,1.300000000000000e-02
	3.318996518129803e-02,-3.695902400093189e-02
	1.000000000000000e-02,0.000000000000000e+00
126		3.311311214825943e+09,1.300000000000000e-02
	3.137368433656504e-02,-3.716842260815726e-02
	1.000000000000000e-02,0.000000000000000e+00
127		3.467368504525350e+09,1.300000000000000e-02
	2.953088495748578e-02,-3.728314508183996e-02
	1.000000000000000e-02,0.000000000000000e+00
128		3.630780547701048e+09,1.300000000000000e-02
	2.767052451075808e-02,-3.729942081027186e-02
	1.000000000000000e-02,0.000000000000000e+00
129		3.801893963205649e+09,1.300000000000000e-02
	2.580215034497587e-02,-3.721451339670646e-02
	1.000000000000000e-02,0.000000000000000e+00
130		3.981071705535011e+09,1.300000000000000e-02
	2.393575011344246e-02,-3.702682318179984e-02
	1.000000000000000e-02,0.000000000000000e+00
131		4.168693834703395e+09,1.300000000000000e-02
	2.208158266177915e-02,-3.673596394438607e-02
	1.000000000000000e-02,0.000000000000000e+00
132		4.365158322401703e+09,1.300000000000000e-02
	2.024999468515813e-02,-3.634280975509185e-02
	1.000000000000000e-02,0.000000000000000e+00
133		4.570881896148796e+09,1.300000000000000e-02
	1.845122933811456e-02,-3.584950923399385e-02
	1.000000000000000e-02,0.000000000000000e+00
134		4.786300923226432e+09,1.300000000000000e-02
	1.669523350424193e-02,-3.525946593598551e-02
	1.000000000000000e-02,0.000000000000000e+00
135		5.011872336272774e+09,1.300000000000000e-02
	1.499147056226812e-02,-3.457728514566099e-02
	1.000000000000000e-02,0.000000000000000e+00
136		5.248074602497780e+09,1.400000000000000e-02
	1.334874521509250e-02,-3.380868889082117e-02
	1.000000000000000e-02,0.000000000000000e+00
137		5.495408738576303e+09,1.400000000000000e-02
	1.177504631206924e-02,-3.296040237071431e-02
	1.000000000000000e-02,0.000000000000000e+00
138		5.754399373371630e+09,1.400000000000000e-02
	1.027741265581998e-02,-3.204001615139444e-02
	1.000000000000000e-02,0.000000000000000e+00
139		6.025595860743641e+09,1.400000000000000e-02
	8.861825628185716e-03,-3.105582934315368e-02
	1.000000000000000e-02,0.000000000000000e+00
140		6.309573444801999e+09,1.400000000000000e-02
	7.533131190440276e-03,-3.001667951234610e-02
	1.000000000000000e-02,0.000000000000000e+00
141		6.606934480076031e+09,1.400000000000000e-02
	6.294992503802628e-03,-2.893176529124046e-02
	1.000000000000000e-02,0.000000000000000e+00
