Title: *inverter
Date: Fri Aug  5 23:09:33  2011
Plotname: AC Analysis
Flags: complex
No. Variables: 3
No. Points: 101     
Variables:
	0	frequency	frequency	grid=3
	1	v(out)	voltage
	2	v(in)	voltage
Values:
0		1.000000000000000e+07,7.000000000000000e-03
	-3.291528723057908e-03,2.158891205163680e-05
	1.000000000000000e-02,0.000000000000000e+00
1		1.047128548050900e+07,7.000000000000000e-03
	-3.291514918739697e-03,2.260626932994732e-05
	1.000000000000000e-02,0.000000000000000e+00
2		1.096478196143185e+07,7.000000000000000e-03
	-3.291499782743710e-03,2.367155883928200e-05
	1.000000000000000e-02,0.000000000000000e+00
3		1.148153621496883e+07,7.000000000000000e-03
	-3.291483186619976e-03,2.478703743178288e-05
	1.000000000000000e-02,0.000000000000000e+00
4		1.202264434617413e+07,7.000000000000000e-03
	-3.291464989531544e-03,2.595506800710066e-05
	1.000000000000000e-02,0.000000000000000e+00
5		1.258925411794168e+07,7.000000000000000e-03
	-3.291445037060552e-03,2.717812446365997e-05
	1.000000000000000e-02,0.000000000000000e+00
6		1.318256738556408e+07,7.000000000000000e-03
	-3.291423159899336e-03,2.845879687637153e-05
	1.000000000000000e-02,0.000000000000000e+00
7		1.380384264602885e+07,7.000000000000000e-03
	-3.291399172415538e-03,2.979979691044170e-05
	1.000000000000000e-02,0.000000000000000e+00
8		1.445439770745928e+07,7.000000000000000e-03
	-3.291372871079111e-03,3.120396348123509e-05
	1.000000000000000e-02,0.000000000000000e+00
9		1.513561248436209e+07,7.000000000000000e-03
	-3.291344032737964e-03,3.267426867044070e-05
	1.000000000000000e-02,0.000000000000000e+00
10		1.584893192461115e+07,7.000000000000000e-03
	-3.291312412727731e-03,3.421382390907689e-05
	1.000000000000000e-02,0.000000000000000e+00
11		1.659586907437562e+07,7.000000000000000e-03
	-3.291277742799747e-03,3.582588643813928e-05
	1.000000000000000e-02,0.000000000000000e+00
12		1.737800828749377e+07,7.000000000000000e-03
	-3.291239728849820e-03,3.751386605794178e-05
	1.000000000000000e-02,0.000000000000000e+00
13		1.819700858609985e+07,7.000000000000000e-03
	-3.291198048428710e-03,3.928133217742289e-05
	1.000000000000000e-02,0.000000000000000e+00
14		1.905460717963249e+07,7.000000000000000e-03
	-3.291152348013437e-03,4.113202117487515e-05
	1.000000000000000e-02,0.000000000000000e+00
15		1.995262314968882e+07,7.000000000000000e-03
	-3.291102240016534e-03,4.306984408170024e-05
	1.000000000000000e-02,0.000000000000000e+00
16		2.089296130854042e+07,7.000000000000000e-03
	-3.291047299508211e-03,4.509889460088617e-05
	1.000000000000000e-02,0.000000000000000e+00
17		2.187761623949555e+07,7.000000000000000e-03
	-3.290987060624034e-03,4.722345747193315e-05
	1.000000000000000e-02,0.000000000000000e+00
18		2.290867652767776e+07,7.000000000000000e-03
	-3.290921012628108e-03,4.944801719391161e-05
	1.000000000000000e-02,0.000000000000000e+00
19		2.398832919019494e+07,7.000000000000000e-03
	-3.290848595598989e-03,5.177726711820148e-05
	1.000000000000000e-02,0.000000000000000e+00
20		2.511886431509584e+07,7.000000000000000e-03
	-3.290769195702394e-03,5.421611892222210e-05
	1.000000000000000e-02,0.000000000000000e+00
21		2.630267991895386e+07,7.000000000000000e-03
	-3.290682140011489e-03,5.676971247509479e-05
	1.000000000000000e-02,0.000000000000000e+00
22		2.754228703338171e+07,7.000000000000000e-03
	-3.290586690831825e-03,5.944342610566541e-05
	1.000000000000000e-02,0.000000000000000e+00
23		2.884031503126611e+07,7.000000000000000e-03
	-3.290482039484021e-03,6.224288728262247e-05
	1.000000000000000e-02,0.000000000000000e+00
24		3.019951720402022e+07,7.000000000000000e-03
	-3.290367299492948e-03,6.517398371555127e-05
	1.000000000000000e-02,0.000000000000000e+00
25		3.162277660168386e+07,7.000000000000000e-03
	-3.290241499127405e-03,6.824287488462816e-05
	1.000000000000000e-02,0.000000000000000e+00
26		3.311311214825918e+07,7.000000000000000e-03
	-3.290103573229205e-03,7.145600400524411e-05
	1.000000000000000e-02,0.000000000000000e+00
27		3.467368504525324e+07,7.000000000000000e-03
	-3.289952354264894e-03,7.482011043210604e-05
	1.000000000000000e-02,0.000000000000000e+00
28		3.630780547701021e+07,7.000000000000000e-03
	-3.289786562527380e-03,7.834224250524644e-05
	1.000000000000000e-02,0.000000000000000e+00
29		3.801893963205621e+07,7.000000000000000e-03
	-3.289604795408069e-03,8.202977083781549e-05
	1.000000000000000e-02,0.000000000000000e+00
30		3.981071705534982e+07,7.000000000000000e-03
	-3.289405515653049e-03,8.589040204246957e-05
	1.000000000000000e-02,0.000000000000000e+00
31		4.168693834703364e+07,7.000000000000000e-03
	-3.289187038509126e-03,8.993219288952157e-05
	1.000000000000000e-02,0.000000000000000e+00
32		4.365158322401670e+07,7.000000000000000e-03
	-3.288947517657222e-03,9.416356488569958e-05
	1.000000000000000e-02,0.000000000000000e+00
33		4.570881896148762e+07,7.000000000000000e-03
	-3.288684929821660e-03,9.859331925726212e-05
	1.000000000000000e-02,0.000000000000000e+00
34		4.786300923226396e+07,7.000000000000000e-03
	-3.288397057934217e-03,1.032306523152287e-04
	1.000000000000000e-02,0.000000000000000e+00
35		5.011872336272737e+07,7.000000000000000e-03
	-3.288081472721489e-03,1.080851711734685e-04
	1.000000000000000e-02,0.000000000000000e+00
36		5.248074602497741e+07,7.000000000000000e-03
	-3.287735512573001e-03,1.131669097821995e-04
	1.000000000000000e-02,0.000000000000000e+00
37		5.495408738576262e+07,7.000000000000000e-03
	-3.287356261535648e-03,1.184863452299126e-04
	1.000000000000000e-02,0.000000000000000e+00
38		5.754399373371587e+07,7.000000000000000e-03
	-3.286940525267457e-03,1.240544142556548e-04
	1.000000000000000e-02,0.000000000000000e+00
39		6.025595860743596e+07,7.000000000000000e-03
	-3.286484804770300e-03,1.298825299007751e-04
	1.000000000000000e-02,0.000000000000000e+00
40		6.309573444801953e+07,8.000000000000000e-03
	-3.285985267707022e-03,1.359825982143902e-04
	1.000000000000000e-02,0.000000000000000e+00
41		6.606934480075981e+07,8.000000000000000e-03
	-3.285437717093663e-03,1.423670349097064e-04
	1.000000000000000e-02,0.000000000000000e+00
42		6.918309709189388e+07,8.000000000000000e-03
	-3.284837557141936e-03,1.490487818486174e-04
	1.000000000000000e-02,0.000000000000000e+00
43		7.244359600749926e+07,8.000000000000000e-03
	-3.284179756011044e-03,1.560413232093392e-04
	1.000000000000000e-02,0.000000000000000e+00
44		7.585775750291865e+07,8.000000000000000e-03
	-3.283458805211459e-03,1.633587011658504e-04
	1.000000000000000e-02,0.000000000000000e+00
45		7.943282347242844e+07,8.000000000000000e-03
	-3.282668675386382e-03,1.710155308781565e-04
	1.000000000000000e-02,0.000000000000000e+00
46		8.317637711026742e+07,8.000000000000000e-03
	-3.281802768179875e-03,1.790270145583991e-04
	1.000000000000000e-02,0.000000000000000e+00
47		8.709635899560840e+07,8.000000000000000e-03
	-3.280853863883912e-03,1.874089543390662e-04
	1.000000000000000e-02,0.000000000000000e+00
48		9.120108393559134e+07,8.000000000000000e-03
	-3.279814064540630e-03,1.961777636254507e-04
	1.000000000000000e-02,0.000000000000000e+00
49		9.549925860214399e+07,8.000000000000000e-03
	-3.278674732161055e-03,2.053504765644151e-04
	1.000000000000000e-02,0.000000000000000e+00
50		1.000000000000004e+08,8.000000000000000e-03
	-3.277426421708312e-03,2.149447552047839e-04
	1.000000000000000e-02,0.000000000000000e+00
51		1.047128548050904e+08,8.000000000000000e-03
	-3.276058808482324e-03,2.249788938605650e-04
	1.000000000000000e-02,0.000000000000000e+00
52		1.096478196143190e+08,8.000000000000000e-03
	-3.274560609535427e-03,2.354718201159387e-04
	1.000000000000000e-02,0.000000000000000e+00
53		1.148153621496888e+08,8.000000000000000e-03
	-3.272919498744943e-03,2.464430918297474e-04
	1.000000000000000e-02,0.000000000000000e+00
54		1.202264434617418e+08,8.000000000000000e-03
	-3.271122015171179e-03,2.579128894062516e-04
	1.000000000000000e-02,0.000000000000000e+00
55		1.258925411794173e+08,8.000000000000000e-03
	-3.269153464338947e-03,2.699020024973835e-04
	1.000000000000000e-02,0.000000000000000e+00
56		1.318256738556413e+08,8.000000000000000e-03
	-3.266997812099486e-03,2.824318101888417e-04
	1.000000000000000e-02,0.000000000000000e+00
57		1.380384264602891e+08,8.000000000000000e-03
	-3.264637570759921e-03,2.955242535974203e-04
	1.000000000000000e-02,0.000000000000000e+00
58		1.445439770745934e+08,8.000000000000000e-03
	-3.262053677211688e-03,3.092017996693697e-04
	1.000000000000000e-02,0.000000000000000e+00
59		1.513561248436215e+08,8.000000000000000e-03
	-3.259225362850893e-03,3.234873948189355e-04
	1.000000000000000e-02,0.000000000000000e+00
60		1.584893192461121e+08,8.000000000000000e-03
	-3.256130015165964e-03,3.384044068823893e-04
	1.000000000000000e-02,0.000000000000000e+00
61		1.659586907437569e+08,8.000000000000000e-03
	-3.252743030975446e-03,3.539765536861096e-04
	1.000000000000000e-02,0.000000000000000e+00
62		1.737800828749384e+08,8.000000000000000e-03
	-3.249037661436126e-03,3.702278163383377e-04
	1.000000000000000e-02,0.000000000000000e+00
63		1.819700858609993e+08,8.000000000000000e-03
	-3.244984849114526e-03,3.871823351545747e-04
	1.000000000000000e-02,0.000000000000000e+00
64		1.905460717963257e+08,8.000000000000000e-03
	-3.240553057629114e-03,4.048642859185284e-04
	1.000000000000000e-02,0.000000000000000e+00
65		1.995262314968890e+08,8.000000000000000e-03
	-3.235708094633397e-03,4.232977339674658e-04
	1.000000000000000e-02,0.000000000000000e+00
66		2.089296130854051e+08,8.000000000000000e-03
	-3.230412929228804e-03,4.425064633776666e-04
	1.000000000000000e-02,0.000000000000000e+00
67		2.187761623949564e+08,8.000000000000000e-03
	-3.224627505278899e-03,4.625137783189448e-04
	1.000000000000000e-02,0.000000000000000e+00
68		2.290867652767785e+08,8.000000000000000e-03
	-3.218308552551636e-03,4.833422734556262e-04
	1.000000000000000e-02,0.000000000000000e+00
69		2.398832919019504e+08,8.000000000000000e-03
	-3.211409398152408e-03,5.050135701061838e-04
	1.000000000000000e-02,0.000000000000000e+00
70		2.511886431509594e+08,8.000000000000000e-03
	-3.203879781336158e-03,5.275480147491833e-04
	1.000000000000000e-02,0.000000000000000e+00
71		2.630267991895397e+08,8.000000000000000e-03
	-3.195665675509200e-03,5.509643363970588e-04
	1.000000000000000e-02,0.000000000000000e+00
72		2.754228703338182e+08,8.000000000000000e-03
	-3.186709122057023e-03,5.752792593732558e-04
	1.000000000000000e-02,0.000000000000000e+00
73		2.884031503126622e+08,8.000000000000000e-03
	-3.176948081566836e-03,6.005070681486678e-04
	1.000000000000000e-02,0.000000000000000e+00
74		3.019951720402034e+08,8.000000000000000e-03
	-3.166316309053235e-03,6.266591211510773e-04
	1.000000000000000e-02,0.000000000000000e+00
75		3.162277660168398e+08,8.000000000000000e-03
	-3.154743260937352e-03,6.537433108925341e-04
	1.000000000000000e-02,0.000000000000000e+00
76		3.311311214825931e+08,8.000000000000000e-03
	-3.142154042762294e-03,6.817634684053053e-04
	1.000000000000000e-02,0.000000000000000e+00
77		3.467368504525337e+08,8.000000000000000e-03
	-3.128469407930006e-03,7.107187108827521e-04
	1.000000000000000e-02,0.000000000000000e+00
78		3.630780547701036e+08,8.000000000000000e-03
	-3.113605819084521e-03,7.406027326363797e-04
	1.000000000000000e-02,0.000000000000000e+00
79		3.801893963205636e+08,8.000000000000000e-03
	-3.097475585097462e-03,7.714030410553431e-04
	1.000000000000000e-02,0.000000000000000e+00
80		3.981071705534998e+08,8.000000000000000e-03
	-3.079987087870188e-03,8.031001412401144e-04
	1.000000000000000e-02,0.000000000000000e+00
81		4.168693834703380e+08,8.000000000000000e-03
	-3.061045114269660e-03,8.356666754235628e-04
	1.000000000000000e-02,0.000000000000000e+00
82		4.365158322401688e+08,8.000000000000000e-03
	-3.040551309356518e-03,8.690665262264077e-04
	1.000000000000000e-02,0.000000000000000e+00
83		4.570881896148780e+08,8.000000000000000e-03
	-3.018404767514619e-03,9.032538962396961e-04
	1.000000000000000e-02,0.000000000000000e+00
84		4.786300923226415e+08,8.000000000000000e-03
	-2.994502777998237e-03,9.381723803798950e-04
	1.000000000000000e-02,0.000000000000000e+00
85		5.011872336272756e+08,8.000000000000000e-03
	-2.968741740600824e-03,9.737540518833765e-04
	1.000000000000000e-02,0.000000000000000e+00
86		5.248074602497762e+08,8.000000000000000e-03
	-2.941018265425445e-03,1.009918587612351e-03
	1.000000000000000e-02,0.000000000000000e+00
87		5.495408738576283e+08,8.000000000000000e-03
	-2.911230467900609e-03,1.046572463392802e-03
	1.000000000000000e-02,0.000000000000000e+00
88		5.754399373371609e+08,8.000000000000000e-03
	-2.879279466040188e-03,1.083608255188098e-03
	1.000000000000000e-02,0.000000000000000e+00
89		6.025595860743620e+08,8.000000000000000e-03
	-2.845071081319850e-03,1.120904086744534e-03
	1.000000000000000e-02,0.000000000000000e+00
90		6.309573444801978e+08,8.000000000000000e-03
	-2.808517737310257e-03,1.158323268560236e-03
	1.000000000000000e-02,0.000000000000000e+00
91		6.606934480076008e+08,8.000000000000000e-03
	-2.769540541321901e-03,1.195714176180080e-03
	1.000000000000000e-02,0.000000000000000e+00
92		6.918309709189415e+08,8.000000000000000e-03
	-2.728071523841607e-03,1.232910417391001e-03
	1.000000000000000e-02,0.000000000000000e+00
93		7.244359600749954e+08,8.000000000000000e-03
	-2.684055998685768e-03,1.269731337323559e-03
	1.000000000000000e-02,0.000000000000000e+00
94		7.585775750291895e+08,8.000000000000000e-03
	-2.637454993947510e-03,1.305982907187981e-03
	1.000000000000000e-02,0.000000000000000e+00
95		7.943282347242875e+08,8.000000000000000e-03
	-2.588247690562854e-03,1.341459035863000e-03
	1.000000000000000e-02,0.000000000000000e+00
96		8.317637711026773e+08,8.000000000000000e-03
	-2.536433792463691e-03,1.375943333403475e-03
	1.000000000000000e-02,0.000000000000000e+00
97		8.709635899560874e+08,8.000000000000000e-03
	-2.482035740819131e-03,1.409211341519687e-03
	1.000000000000000e-02,0.000000000000000e+00
98		9.120108393559169e+08,8.000000000000000e-03
	-2.425100675942448e-03,1.441033228263510e-03
	1.000000000000000e-02,0.000000000000000e+00
99		9.549925860214435e+08,8.000000000000000e-03
	-2.365702045288684e-03,1.471176922940051e-03
	1.000000000000000e-02,0.000000000000000e+00
100		1.000000000000008e+09,8.000000000000000e-03
	-2.303940755787915e-03,1.499411643459190e-03
	1.000000000000000e-02,0.000000000000000e+00
