Title: *inverter
Date: Tue Oct  4 15:59:18  2011
Plotname: DC transfer characteristic
Flags: real
No. Variables: 3
No. Points: 181     
Variables:
	0	v(v-sweep)	voltage
	1	v(out)	voltage
	2	v(in)	voltage
Values:
0		0.000000000000000e+00
	2.802581747113685e-05
	0.000000000000000e+00
1		1.000000000000000e-02
	3.807100357094678e-05
	1.000000000000000e-02
2		2.000000000000000e-02
	5.167592295874471e-05
	2.000000000000000e-02
3		3.000000000000000e-02
	7.007770528092139e-05
	3.000000000000000e-02
4		4.000000000000000e-02
	9.492850277105876e-05
	4.000000000000000e-02
5		5.000000000000000e-02
	1.284257482107241e-04
	5.000000000000000e-02
6		6.000000000000000e-02
	1.734775128652732e-04
	6.000000000000000e-02
7		7.000000000000001e-02
	2.339090748347846e-04
	7.000000000000001e-02
8		8.000000000000000e-02
	3.147153506811484e-04
	8.000000000000000e-02
9		9.000000000000000e-02
	4.223606060643571e-04
	9.000000000000000e-02
10		9.999999999999999e-02
	5.651207044200002e-04
	9.999999999999999e-02
11		1.100000000000000e-01
	7.534531022243689e-04
	1.100000000000000e-01
12		1.200000000000000e-01
	1.000365244657252e-03
	1.200000000000000e-01
13		1.300000000000000e-01
	1.321733475835912e-03
	1.300000000000000e-01
14		1.400000000000000e-01
	1.736504738938924e-03
	1.400000000000000e-01
15		1.500000000000000e-01
	2.266698002484440e-03
	1.500000000000000e-01
16		1.600000000000000e-01
	2.937120401702367e-03
	1.600000000000000e-01
17		1.700000000000000e-01
	3.774734324324167e-03
	1.700000000000000e-01
18		1.800000000000000e-01
	4.807661812971738e-03
	1.800000000000000e-01
19		1.900000000000000e-01
	6.063886986287423e-03
	1.900000000000000e-01
20		2.000000000000000e-01
	7.569797059934341e-03
	2.000000000000000e-01
21		2.100000000000000e-01
	9.348759691324489e-03
	2.100000000000000e-01
22		2.200000000000001e-01
	1.141994359129413e-02
	2.200000000000001e-01
23		2.300000000000001e-01
	1.379754300595888e-02
	2.300000000000001e-01
24		2.400000000000001e-01
	1.649048040313580e-02
	2.400000000000001e-01
25		2.500000000000001e-01
	1.950256640855852e-02
	2.500000000000001e-01
26		2.600000000000001e-01
	2.283302182590572e-02
	2.600000000000001e-01
27		2.700000000000001e-01
	2.647722966171754e-02
	2.700000000000001e-01
28		2.800000000000001e-01
	3.042758478026820e-02
	2.800000000000001e-01
29		2.900000000000001e-01
	3.467433327177216e-02
	2.900000000000001e-01
30		3.000000000000001e-01
	3.920632818539616e-02
	3.000000000000001e-01
31		3.100000000000001e-01
	4.401166151480543e-02
	3.100000000000001e-01
32		3.200000000000001e-01
	4.907815803845783e-02
	3.200000000000001e-01
33		3.300000000000001e-01
	5.439373311349169e-02
	3.300000000000001e-01
34		3.400000000000001e-01
	5.994662482091023e-02
	3.400000000000001e-01
35		3.500000000000001e-01
	6.572551312276126e-02
	3.500000000000001e-01
36		3.600000000000002e-01
	7.171953731219399e-02
	3.600000000000002e-01
37		3.700000000000002e-01
	7.791822037022465e-02
	3.700000000000002e-01
38		3.800000000000002e-01
	8.431130736343881e-02
	3.800000000000002e-01
39		3.900000000000002e-01
	9.088852757449385e-02
	3.900000000000002e-01
40		4.000000000000002e-01
	9.763929971483665e-02
	4.000000000000002e-01
41		4.100000000000002e-01
	1.045524182362933e-01
	4.100000000000002e-01
42		4.200000000000002e-01
	1.116157840008009e-01
	4.200000000000002e-01
43		4.300000000000002e-01
	1.188162636564836e-01
	4.300000000000002e-01
44		4.400000000000002e-01
	1.261397599556172e-01
	4.400000000000002e-01
45		4.500000000000002e-01
	1.335715329665356e-01
	4.500000000000002e-01
46		4.600000000000002e-01
	1.410967340496350e-01
	4.600000000000002e-01
47		4.700000000000003e-01
	1.487010359515183e-01
	4.700000000000003e-01
48		4.800000000000003e-01
	1.563712096168079e-01
	4.800000000000003e-01
49		4.900000000000003e-01
	1.640955300633709e-01
	4.900000000000003e-01
50		5.000000000000002e-01
	1.718639655296252e-01
	5.000000000000002e-01
51		5.100000000000002e-01
	1.796681727232534e-01
	5.100000000000002e-01
52		5.200000000000002e-01
	1.875013583559871e-01
	5.200000000000002e-01
53		5.300000000000002e-01
	1.953580717796057e-01
	5.300000000000002e-01
54		5.400000000000003e-01
	2.032339791290026e-01
	5.400000000000003e-01
55		5.500000000000003e-01
	2.111256500819842e-01
	5.500000000000003e-01
56		5.600000000000003e-01
	2.190303721971862e-01
	5.600000000000003e-01
57		5.700000000000003e-01
	2.269459971362774e-01
	5.700000000000003e-01
58		5.800000000000003e-01
	2.348708172496646e-01
	5.800000000000003e-01
59		5.900000000000003e-01
	2.428034684630703e-01
	5.900000000000003e-01
60		6.000000000000003e-01
	2.507428547512908e-01
	6.000000000000003e-01
61		6.100000000000003e-01
	2.586880897652479e-01
	6.100000000000003e-01
62		6.200000000000003e-01
	2.666384518239470e-01
	6.200000000000003e-01
63		6.300000000000003e-01
	2.745933492004728e-01
	6.300000000000003e-01
64		6.400000000000003e-01
	2.825522932886541e-01
	6.400000000000003e-01
65		6.500000000000004e-01
	2.905148777884816e-01
	6.500000000000004e-01
66		6.600000000000004e-01
	2.984807624890971e-01
	6.600000000000004e-01
67		6.700000000000004e-01
	3.064496605706869e-01
	6.700000000000004e-01
68		6.800000000000004e-01
	3.144213286083311e-01
	6.800000000000004e-01
69		6.900000000000004e-01
	3.223955586589652e-01
	6.900000000000004e-01
70		7.000000000000004e-01
	3.303721719618218e-01
	7.000000000000004e-01
71		7.100000000000004e-01
	3.383510138948388e-01
	7.100000000000004e-01
72		7.200000000000004e-01
	3.463319499138870e-01
	7.200000000000004e-01
73		7.300000000000004e-01
	3.543148622651656e-01
	7.300000000000004e-01
74		7.400000000000004e-01
	3.622996473091315e-01
	7.400000000000004e-01
75		7.500000000000004e-01
	3.702862133306992e-01
	7.500000000000004e-01
76		7.600000000000005e-01
	3.782744787381601e-01
	7.600000000000005e-01
77		7.700000000000005e-01
	3.862643705744577e-01
	7.700000000000005e-01
78		7.800000000000005e-01
	3.942558232807312e-01
	7.800000000000005e-01
79		7.900000000000005e-01
	4.022487776646118e-01
	7.900000000000005e-01
80		8.000000000000005e-01
	4.102431800355004e-01
	8.000000000000005e-01
81		8.100000000000005e-01
	4.182389814766697e-01
	8.100000000000005e-01
82		8.200000000000005e-01
	4.262361372299817e-01
	8.200000000000005e-01
83		8.300000000000005e-01
	4.342346061737021e-01
	8.300000000000005e-01
84		8.400000000000005e-01
	4.422343503776026e-01
	8.400000000000005e-01
85		8.500000000000005e-01
	4.502353347224918e-01
	8.500000000000005e-01
86		8.600000000000005e-01
	4.582375265736673e-01
	8.600000000000005e-01
87		8.700000000000006e-01
	4.662408954996631e-01
	8.700000000000006e-01
88		8.800000000000006e-01
	4.742454130291971e-01
	8.800000000000006e-01
89		8.900000000000006e-01
	4.822510524404360e-01
	8.900000000000006e-01
90		9.000000000000006e-01
	4.902577885777110e-01
	9.000000000000006e-01
91		9.100000000000006e-01
	4.982655976916114e-01
	9.100000000000006e-01
92		9.200000000000006e-01
	5.062744572990731e-01
	9.200000000000006e-01
93		9.300000000000006e-01
	5.142843460605930e-01
	9.300000000000006e-01
94		9.400000000000006e-01
	5.222952436721879e-01
	9.400000000000006e-01
95		9.500000000000006e-01
	5.303071307700605e-01
	9.500000000000006e-01
96		9.600000000000006e-01
	5.383199888462572e-01
	9.600000000000006e-01
97		9.700000000000006e-01
	5.463338001738625e-01
	9.700000000000006e-01
98		9.800000000000006e-01
	5.543485477404848e-01
	9.800000000000006e-01
99		9.900000000000007e-01
	5.623642151889641e-01
	9.900000000000007e-01
100		1.000000000000001e+00
	5.703807867644047e-01
	1.000000000000001e+00
101		1.010000000000001e+00
	5.783982472667381e-01
	1.010000000000001e+00
102		1.020000000000001e+00
	5.864165820081455e-01
	1.020000000000001e+00
103		1.030000000000001e+00
	5.944357767747565e-01
	1.030000000000001e+00
104		1.040000000000001e+00
	6.024558177921255e-01
	1.040000000000001e+00
105		1.050000000000001e+00
	6.104766916940391e-01
	1.050000000000001e+00
106		1.060000000000001e+00
	6.184983854942756e-01
	1.060000000000001e+00
107		1.070000000000001e+00
	6.265208865609929e-01
	1.070000000000001e+00
108		1.080000000000001e+00
	6.345441825934413e-01
	1.080000000000001e+00
109		1.090000000000001e+00
	6.425682616007580e-01
	1.090000000000001e+00
110		1.100000000000001e+00
	6.505931118826133e-01
	1.100000000000001e+00
111		1.110000000000001e+00
	6.586187220115165e-01
	1.110000000000001e+00
112		1.120000000000001e+00
	6.666450808166061e-01
	1.120000000000001e+00
113		1.130000000000001e+00
	6.746721773687711e-01
	1.130000000000001e+00
114		1.140000000000001e+00
	6.827000009669739e-01
	1.140000000000001e+00
115		1.150000000000001e+00
	6.907285411256461e-01
	1.150000000000001e+00
116		1.160000000000001e+00
	6.987577875630576e-01
	1.160000000000001e+00
117		1.170000000000001e+00
	7.067877301905631e-01
	1.170000000000001e+00
118		1.180000000000001e+00
	7.148183591026387e-01
	1.180000000000001e+00
119		1.190000000000001e+00
	7.228496645676402e-01
	1.190000000000001e+00
120		1.200000000000001e+00
	7.308816370192059e-01
	1.200000000000001e+00
121		1.210000000000001e+00
	7.389142670482506e-01
	1.210000000000001e+00
122		1.220000000000001e+00
	7.469475453954965e-01
	1.220000000000001e+00
123		1.230000000000001e+00
	7.549814629444873e-01
	1.230000000000001e+00
124		1.240000000000001e+00
	7.630160107150502e-01
	1.240000000000001e+00
125		1.250000000000001e+00
	7.710511798571507e-01
	1.250000000000001e+00
126		1.260000000000001e+00
	7.790869616451264e-01
	1.260000000000001e+00
127		1.270000000000001e+00
	7.871233474722426e-01
	1.270000000000001e+00
128		1.280000000000001e+00
	7.951603288455635e-01
	1.280000000000001e+00
129		1.290000000000001e+00
	8.031978973810902e-01
	1.290000000000001e+00
130		1.300000000000001e+00
	8.112360447991603e-01
	1.300000000000001e+00
131		1.310000000000001e+00
	8.192747629200735e-01
	1.310000000000001e+00
132		1.320000000000001e+00
	8.273140436599231e-01
	1.320000000000001e+00
133		1.330000000000001e+00
	8.353538790266253e-01
	1.330000000000001e+00
134		1.340000000000001e+00
	8.433942611161162e-01
	1.340000000000001e+00
135		1.350000000000001e+00
	8.514351821087013e-01
	1.350000000000001e+00
136		1.360000000000001e+00
	8.594766342655571e-01
	1.360000000000001e+00
137		1.370000000000001e+00
	8.675186099253441e-01
	1.370000000000001e+00
138		1.380000000000001e+00
	8.755611015009456e-01
	1.380000000000001e+00
139		1.390000000000001e+00
	8.836041014762995e-01
	1.390000000000001e+00
140		1.400000000000001e+00
	8.916476024033216e-01
	1.400000000000001e+00
141		1.410000000000001e+00
	8.996915968989012e-01
	1.410000000000001e+00
142		1.420000000000001e+00
	9.077360776419687e-01
	1.420000000000001e+00
143		1.430000000000001e+00
	9.157810373706131e-01
	1.430000000000001e+00
144		1.440000000000001e+00
	9.238264688792449e-01
	1.440000000000001e+00
145		1.450000000000001e+00
	9.318723650157944e-01
	1.450000000000001e+00
146		1.460000000000001e+00
	9.399187186789324e-01
	1.460000000000001e+00
147		1.470000000000001e+00
	9.479655228153063e-01
	1.470000000000001e+00
148		1.480000000000001e+00
	9.560127704167790e-01
	1.480000000000001e+00
149		1.490000000000001e+00
	9.640604545176612e-01
	1.490000000000001e+00
150		1.500000000000001e+00
	9.721085681919271e-01
	1.500000000000001e+00
151		1.510000000000001e+00
	9.801571045504016e-01
	1.510000000000001e+00
152		1.520000000000001e+00
	9.882060567379115e-01
	1.520000000000001e+00
153		1.530000000000001e+00
	9.962554179303820e-01
	1.530000000000001e+00
154		1.540000000000001e+00
	1.004305181331875e+00
	1.540000000000001e+00
155		1.550000000000001e+00
	1.012355340171547e+00
	1.550000000000001e+00
156		1.560000000000001e+00
	1.020405887700524e+00
	1.560000000000001e+00
157		1.570000000000001e+00
	1.028456817188669e+00
	1.570000000000001e+00
158		1.580000000000001e+00
	1.036508121921233e+00
	1.580000000000001e+00
159		1.590000000000001e+00
	1.044559795195367e+00
	1.590000000000001e+00
160		1.600000000000001e+00
	1.052611830316483e+00
	1.600000000000001e+00
161		1.610000000000001e+00
	1.060664220594443e+00
	1.610000000000001e+00
162		1.620000000000001e+00
	1.068716959339551e+00
	1.620000000000001e+00
163		1.630000000000001e+00
	1.076770039858326e+00
	1.630000000000001e+00
164		1.640000000000001e+00
	1.084823455449036e+00
	1.640000000000001e+00
165		1.650000000000001e+00
	1.092877199396953e+00
	1.650000000000001e+00
166		1.660000000000001e+00
	1.100931264969313e+00
	1.660000000000001e+00
167		1.670000000000001e+00
	1.108985645409932e+00
	1.670000000000001e+00
168		1.680000000000001e+00
	1.117040333933455e+00
	1.680000000000001e+00
169		1.690000000000001e+00
	1.125095323719174e+00
	1.690000000000001e+00
170		1.700000000000001e+00
	1.133150607904398e+00
	1.700000000000001e+00
171		1.710000000000001e+00
	1.141206179577294e+00
	1.710000000000001e+00
172		1.720000000000001e+00
	1.149262031769155e+00
	1.720000000000001e+00
173		1.730000000000001e+00
	1.157318157446030e+00
	1.730000000000001e+00
174		1.740000000000001e+00
	1.165374549499636e+00
	1.740000000000001e+00
175		1.750000000000001e+00
	1.173431200737475e+00
	1.750000000000001e+00
176		1.760000000000001e+00
	1.181488103872051e+00
	1.760000000000001e+00
177		1.770000000000001e+00
	1.189545251509109e+00
	1.770000000000001e+00
178		1.780000000000001e+00
	1.197602636134734e+00
	1.780000000000001e+00
179		1.790000000000001e+00
	1.205660250101221e+00
	1.790000000000001e+00
180		1.800000000000001e+00
	1.213718085611527e+00
	1.800000000000001e+00
