Title: *inverter
Date: Sat Aug  6 23:25:47  2011
Plotname: DC transfer characteristic
Flags: real
No. Variables: 3
No. Points: 201     
Variables:
	0	v(v-sweep)	voltage
	1	v(out)	voltage
	2	v(in)	voltage
Values:
0		0.000000000000000e+00
	1.799996911402300e+00
	0.000000000000000e+00
1		1.000000000000000e-02
	1.799995950756004e+00
	1.000000000000000e-02
2		2.000000000000000e-02
	1.799994282943960e+00
	2.000000000000000e-02
3		3.000000000000000e-02
	1.799992242477821e+00
	3.000000000000000e-02
4		4.000000000000000e-02
	1.799989483018552e+00
	4.000000000000000e-02
5		5.000000000000000e-02
	1.799985756397168e+00
	5.000000000000000e-02
6		6.000000000000000e-02
	1.799980731634349e+00
	6.000000000000000e-02
7		7.000000000000001e-02
	1.799973968829493e+00
	7.000000000000001e-02
8		8.000000000000000e-02
	1.799964885609881e+00
	8.000000000000000e-02
9		9.000000000000000e-02
	1.799952714406583e+00
	9.000000000000000e-02
10		9.999999999999999e-02
	1.799936448606200e+00
	9.999999999999999e-02
11		1.100000000000000e-01
	1.799914775461958e+00
	1.100000000000000e-01
12		1.200000000000000e-01
	1.799885993577353e+00
	1.200000000000000e-01
13		1.300000000000000e-01
	1.799847912843236e+00
	1.300000000000000e-01
14		1.400000000000000e-01
	1.799797734949876e+00
	1.400000000000000e-01
15		1.500000000000000e-01
	1.799731913022558e+00
	1.500000000000000e-01
16		1.600000000000000e-01
	1.799645989518114e+00
	1.600000000000000e-01
17		1.700000000000000e-01
	1.799534412198527e+00
	1.700000000000000e-01
18		1.800000000000000e-01
	1.799390328653313e+00
	1.800000000000000e-01
19		1.900000000000000e-01
	1.799205360358929e+00
	1.900000000000000e-01
20		2.000000000000000e-01
	1.798969357595856e+00
	2.000000000000000e-01
21		2.100000000000000e-01
	1.798670136818187e+00
	2.100000000000000e-01
22		2.200000000000001e-01
	1.798293202667710e+00
	2.200000000000001e-01
23		2.300000000000001e-01
	1.797821458379210e+00
	2.300000000000001e-01
24		2.400000000000001e-01
	1.797234911564501e+00
	2.400000000000001e-01
25		2.500000000000001e-01
	1.796510387762524e+00
	2.500000000000001e-01
26		2.600000000000001e-01
	1.795621271455747e+00
	2.600000000000001e-01
27		2.700000000000001e-01
	1.794537302126016e+00
	2.700000000000001e-01
28		2.800000000000001e-01
	1.793224458839737e+00
	2.800000000000001e-01
29		2.900000000000001e-01
	1.791644967602686e+00
	2.900000000000001e-01
30		3.000000000000001e-01
	1.789757458378786e+00
	3.000000000000001e-01
31		3.100000000000001e-01
	1.787517281763332e+00
	3.100000000000001e-01
32		3.200000000000001e-01
	1.784876969757753e+00
	3.200000000000001e-01
33		3.300000000000001e-01
	1.781786794369246e+00
	3.300000000000001e-01
34		3.400000000000001e-01
	1.778195347044015e+00
	3.400000000000001e-01
35		3.500000000000001e-01
	1.774050036550510e+00
	3.500000000000001e-01
36		3.600000000000002e-01
	1.769297386411486e+00
	3.600000000000002e-01
37		3.700000000000002e-01
	1.763883005589494e+00
	3.700000000000002e-01
38		3.800000000000002e-01
	1.757751104015339e+00
	3.800000000000002e-01
39		3.900000000000002e-01
	1.750843419703110e+00
	3.900000000000002e-01
40		4.000000000000002e-01
	1.743097404525289e+00
	4.000000000000002e-01
41		4.100000000000002e-01
	1.734443464249173e+00
	4.100000000000002e-01
42		4.200000000000002e-01
	1.724800940053030e+00
	4.200000000000002e-01
43		4.300000000000002e-01
	1.714072312030599e+00
	4.300000000000002e-01
44		4.400000000000002e-01
	1.702134724733879e+00
	4.400000000000002e-01
45		4.500000000000002e-01
	1.688827235168258e+00
	4.500000000000002e-01
46		4.600000000000002e-01
	1.673930881578900e+00
	4.600000000000002e-01
47		4.700000000000003e-01
	1.657136252030414e+00
	4.700000000000003e-01
48		4.800000000000003e-01
	1.637989063658658e+00
	4.800000000000003e-01
49		4.900000000000003e-01
	1.615799774652141e+00
	4.900000000000003e-01
50		5.000000000000002e-01
	1.589517163779320e+00
	5.000000000000002e-01
51		5.100000000000002e-01
	1.557699135997128e+00
	5.100000000000002e-01
52		5.200000000000002e-01
	1.519114663548635e+00
	5.200000000000002e-01
53		5.300000000000002e-01
	1.474061063850013e+00
	5.300000000000002e-01
54		5.400000000000003e-01
	1.424225554520875e+00
	5.400000000000003e-01
55		5.500000000000003e-01
	1.371227128773444e+00
	5.500000000000003e-01
56		5.600000000000003e-01
	1.316163335075812e+00
	5.600000000000003e-01
57		5.700000000000003e-01
	1.259745046615461e+00
	5.700000000000003e-01
58		5.800000000000003e-01
	1.202437586936472e+00
	5.800000000000003e-01
59		5.900000000000003e-01
	1.144553119217576e+00
	5.900000000000003e-01
60		6.000000000000003e-01
	1.086307512822174e+00
	6.000000000000003e-01
61		6.100000000000003e-01
	1.027855045262967e+00
	6.100000000000003e-01
62		6.200000000000003e-01
	9.693100157772910e-01
	6.200000000000003e-01
63		6.300000000000003e-01
	9.107607405648978e-01
	6.300000000000003e-01
64		6.400000000000003e-01
	8.522792071119478e-01
	6.400000000000003e-01
65		6.500000000000004e-01
	7.939284827501455e-01
	6.500000000000004e-01
66		6.600000000000004e-01
	7.357694648844288e-01
	6.600000000000004e-01
67		6.700000000000004e-01
	6.778686173726698e-01
	6.700000000000004e-01
68		6.800000000000004e-01
	6.203091396736053e-01
	6.800000000000004e-01
69		6.900000000000004e-01
	5.632102839276806e-01
	6.900000000000004e-01
70		7.000000000000004e-01
	5.067653105667347e-01
	7.000000000000004e-01
71		7.100000000000004e-01
	4.513232349001413e-01
	7.100000000000004e-01
72		7.200000000000004e-01
	3.975743946630159e-01
	7.200000000000004e-01
73		7.300000000000004e-01
	3.469472297769871e-01
	7.300000000000004e-01
74		7.400000000000004e-01
	3.020970414035024e-01
	7.400000000000004e-01
75		7.500000000000004e-01
	2.663715041301277e-01
	7.500000000000004e-01
76		7.600000000000005e-01
	2.400609467126729e-01
	7.600000000000005e-01
77		7.700000000000005e-01
	2.206114405033149e-01
	7.700000000000005e-01
78		7.800000000000005e-01
	2.060432847668756e-01
	7.800000000000005e-01
79		7.900000000000005e-01
	1.943960195362396e-01
	7.900000000000005e-01
80		8.000000000000005e-01
	1.847307367681296e-01
	8.000000000000005e-01
81		8.100000000000005e-01
	1.765173298794593e-01
	8.100000000000005e-01
82		8.200000000000005e-01
	1.694033340146744e-01
	8.200000000000005e-01
83		8.300000000000005e-01
	1.631487232129660e-01
	8.300000000000005e-01
84		8.400000000000005e-01
	1.575842085858009e-01
	8.400000000000005e-01
85		8.500000000000005e-01
	1.525860146753407e-01
	8.500000000000005e-01
86		8.600000000000005e-01
	1.480608895230771e-01
	8.600000000000005e-01
87		8.700000000000006e-01
	1.439367917214022e-01
	8.700000000000006e-01
88		8.800000000000006e-01
	1.401568742874746e-01
	8.800000000000006e-01
89		8.900000000000006e-01
	1.366754650217030e-01
	8.900000000000006e-01
90		9.000000000000006e-01
	1.334552992945917e-01
	9.000000000000006e-01
91		9.100000000000006e-01
	1.304655641885306e-01
	9.100000000000006e-01
92		9.200000000000006e-01
	1.276804836740327e-01
	9.200000000000006e-01
93		9.300000000000006e-01
	1.250782739972909e-01
	9.300000000000006e-01
94		9.400000000000006e-01
	1.226403582945563e-01
	9.400000000000006e-01
95		9.500000000000006e-01
	1.203507664982246e-01
	9.500000000000006e-01
96		9.600000000000006e-01
	1.181956701559190e-01
	9.600000000000006e-01
97		9.700000000000006e-01
	1.161630171275199e-01
	9.700000000000006e-01
98		9.800000000000006e-01
	1.142422413414383e-01
	9.800000000000006e-01
99		9.900000000000007e-01
	1.124240297313178e-01
	9.900000000000007e-01
100		1.000000000000001e+00
	1.107001332755364e-01
	1.000000000000001e+00
101		1.010000000000001e+00
	1.090632124393662e-01
	1.010000000000001e+00
102		1.020000000000001e+00
	1.075067097323339e-01
	1.020000000000001e+00
103		1.030000000000001e+00
	1.060247438412276e-01
	1.030000000000001e+00
104		1.040000000000001e+00
	1.046120210820430e-01
	1.040000000000001e+00
105		1.050000000000001e+00
	1.032637608670852e-01
	1.050000000000001e+00
106		1.060000000000001e+00
	1.019756325991380e-01
	1.060000000000001e+00
107		1.070000000000001e+00
	1.007437019477962e-01
	1.070000000000001e+00
108		1.080000000000001e+00
	9.956438487920789e-02
	1.080000000000001e+00
109		1.090000000000001e+00
	9.843440813224184e-02
	1.090000000000001e+00
110		1.100000000000001e+00
	9.735077508491408e-02
	1.100000000000001e+00
111		1.110000000000001e+00
	9.631073615202711e-02
	1.110000000000001e+00
112		1.120000000000001e+00
	9.531176301095698e-02
	1.120000000000001e+00
113		1.130000000000001e+00
	9.435152607689544e-02
	1.130000000000001e+00
114		1.140000000000001e+00
	9.342787474858834e-02
	1.140000000000001e+00
115		1.150000000000001e+00
	9.253882002614303e-02
	1.150000000000001e+00
116		1.160000000000001e+00
	9.168251916784363e-02
	1.160000000000001e+00
117		1.170000000000001e+00
	9.085726210627795e-02
	1.170000000000001e+00
118		1.180000000000001e+00
	9.006145938786926e-02
	1.180000000000001e+00
119		1.190000000000001e+00
	8.929363143602084e-02
	1.190000000000001e+00
120		1.200000000000001e+00
	8.855239896798520e-02
	1.200000000000001e+00
121		1.210000000000001e+00
	8.783647442048631e-02
	1.210000000000001e+00
122		1.220000000000001e+00
	8.714465425991050e-02
	1.220000000000001e+00
123		1.230000000000001e+00
	8.647581207035100e-02
	1.230000000000001e+00
124		1.240000000000001e+00
	8.582889232749642e-02
	1.240000000000001e+00
125		1.250000000000001e+00
	8.520290477878181e-02
	1.250000000000001e+00
126		1.260000000000001e+00
	8.459691936077524e-02
	1.260000000000001e+00
127		1.270000000000001e+00
	8.401006159374684e-02
	1.270000000000001e+00
128		1.280000000000001e+00
	8.344150840104229e-02
	1.280000000000001e+00
129		1.290000000000001e+00
	8.289048430744739e-02
	1.290000000000001e+00
130		1.300000000000001e+00
	8.235625797637824e-02
	1.300000000000001e+00
131		1.310000000000001e+00
	8.183813905059466e-02
	1.310000000000001e+00
132		1.320000000000001e+00
	8.133547526533942e-02
	1.320000000000001e+00
133		1.330000000000001e+00
	8.084764980644261e-02
	1.330000000000001e+00
134		1.340000000000001e+00
	8.037407888910035e-02
	1.340000000000001e+00
135		1.350000000000001e+00
	7.991420953578041e-02
	1.350000000000001e+00
136		1.360000000000001e+00
	7.946751753412171e-02
	1.360000000000001e+00
137		1.370000000000001e+00
	7.903350555778782e-02
	1.370000000000001e+00
138		1.380000000000001e+00
	7.861170143508088e-02
	1.380000000000001e+00
139		1.390000000000001e+00
	7.820165655174244e-02
	1.390000000000001e+00
140		1.400000000000001e+00
	7.780294437579043e-02
	1.400000000000001e+00
141		1.410000000000001e+00
	7.741515909349962e-02
	1.410000000000001e+00
142		1.420000000000001e+00
	7.703791434674394e-02
	1.420000000000001e+00
143		1.430000000000001e+00
	7.667084206290400e-02
	1.430000000000001e+00
144		1.440000000000001e+00
	7.631359136941063e-02
	1.440000000000001e+00
145		1.450000000000001e+00
	7.596582758578052e-02
	1.450000000000001e+00
146		1.460000000000001e+00
	7.562723128667841e-02
	1.460000000000001e+00
147		1.470000000000001e+00
	7.529749743016374e-02
	1.470000000000001e+00
148		1.480000000000001e+00
	7.497633454582762e-02
	1.480000000000001e+00
149		1.490000000000001e+00
	7.466346397801343e-02
	1.490000000000001e+00
150		1.500000000000001e+00
	7.435861917976148e-02
	1.500000000000001e+00
151		1.510000000000001e+00
	7.406154505350676e-02
	1.510000000000001e+00
152		1.520000000000001e+00
	7.377199733491431e-02
	1.520000000000001e+00
153		1.530000000000001e+00
	7.348974201656215e-02
	1.530000000000001e+00
154		1.540000000000001e+00
	7.321455480846072e-02
	1.540000000000001e+00
155		1.550000000000001e+00
	7.294622063266154e-02
	1.550000000000001e+00
156		1.560000000000001e+00
	7.268453314944165e-02
	1.560000000000001e+00
157		1.570000000000001e+00
	7.242929431276283e-02
	1.570000000000001e+00
158		1.580000000000001e+00
	7.218031395289168e-02
	1.580000000000001e+00
159		1.590000000000001e+00
	7.193740938424900e-02
	1.590000000000001e+00
160		1.600000000000001e+00
	7.170040503670466e-02
	1.600000000000001e+00
161		1.610000000000001e+00
	7.146913210868597e-02
	1.610000000000001e+00
162		1.620000000000001e+00
	7.124342824059104e-02
	1.620000000000001e+00
163		1.630000000000001e+00
	7.102313720712326e-02
	1.630000000000001e+00
164		1.640000000000001e+00
	7.080810862726715e-02
	1.640000000000001e+00
165		1.650000000000001e+00
	7.059819769072437e-02
	1.650000000000001e+00
166		1.660000000000001e+00
	7.039326489972299e-02
	1.660000000000001e+00
167		1.670000000000001e+00
	7.019317582518961e-02
	1.670000000000001e+00
168		1.680000000000001e+00
	6.999780087635464e-02
	1.680000000000001e+00
169		1.690000000000001e+00
	6.980701508292644e-02
	1.690000000000001e+00
170		1.700000000000001e+00
	6.962069788903419e-02
	1.700000000000001e+00
171		1.710000000000001e+00
	6.943873295820063e-02
	1.710000000000001e+00
172		1.720000000000001e+00
	6.926100798865269e-02
	1.720000000000001e+00
173		1.730000000000001e+00
	6.908741453833363e-02
	1.730000000000001e+00
174		1.740000000000001e+00
	6.891784785902161e-02
	1.740000000000001e+00
175		1.750000000000001e+00
	6.875220673900163e-02
	1.750000000000001e+00
176		1.760000000000001e+00
	6.859039335377763e-02
	1.760000000000001e+00
177		1.770000000000001e+00
	6.843231312434495e-02
	1.770000000000001e+00
178		1.780000000000001e+00
	6.827787458257721e-02
	1.780000000000001e+00
179		1.790000000000001e+00
	6.812698924331083e-02
	1.790000000000001e+00
180		1.800000000000001e+00
	6.797957148273970e-02
	1.800000000000001e+00
181		1.810000000000001e+00
	6.783553842275521e-02
	1.810000000000001e+00
182		1.820000000000001e+00
	6.769480982089530e-02
	1.820000000000001e+00
183		1.830000000000001e+00
	6.755730796558333e-02
	1.830000000000001e+00
184		1.840000000000001e+00
	6.742295757636103e-02
	1.840000000000001e+00
185		1.850000000000001e+00
	6.729168570884025e-02
	1.850000000000001e+00
186		1.860000000000001e+00
	6.716342166410769e-02
	1.860000000000001e+00
187		1.870000000000001e+00
	6.703809690234698e-02
	1.870000000000001e+00
188		1.880000000000001e+00
	6.691564496044308e-02
	1.880000000000001e+00
189		1.890000000000001e+00
	6.679600137335794e-02
	1.890000000000001e+00
190		1.900000000000001e+00
	6.667910359907614e-02
	1.900000000000001e+00
191		1.910000000000001e+00
	6.656489094693054e-02
	1.910000000000001e+00
192		1.920000000000001e+00
	6.645330450913162e-02
	1.920000000000001e+00
193		1.930000000000001e+00
	6.634428709533335e-02
	1.930000000000001e+00
194		1.940000000000002e+00
	6.623778317007749e-02
	1.940000000000002e+00
195		1.950000000000002e+00
	6.613373879297112e-02
	1.950000000000002e+00
196		1.960000000000002e+00
	6.603210156145610e-02
	1.960000000000002e+00
197		1.970000000000002e+00
	6.593282055604005e-02
	1.970000000000002e+00
198		1.980000000000002e+00
	6.583584628786736e-02
	1.980000000000002e+00
199		1.990000000000002e+00
	6.574113064851039e-02
	1.990000000000002e+00
200		2.000000000000001e+00
	6.564862686187413e-02
	2.000000000000001e+00
