Title: *inverter
Date: Fri Aug  5 17:05:58  2011
Plotname: AC Analysis
Flags: complex
No. Variables: 3
No. Points: 101     
Variables:
	0	frequency	frequency	grid=3
	1	v(out)	voltage
	2	v(in)	voltage
Values:
0		1.000000000000000e+07,8.999999999999999e-03
	-4.062765801739561e-03,8.379650958931809e-06
	5.000000000000000e-02,0.000000000000000e+00
1		1.047128548050900e+07,8.999999999999999e-03
	-4.062764904884423e-03,8.774570699985848e-06
	5.000000000000000e-02,0.000000000000000e+00
2		1.096478196143185e+07,8.999999999999999e-03
	-4.062763921502565e-03,9.188102280684223e-06
	5.000000000000000e-02,0.000000000000000e+00
3		1.148153621496883e+07,8.999999999999999e-03
	-4.062762843246094e-03,9.621122827138759e-06
	5.000000000000000e-02,0.000000000000000e+00
4		1.202264434617413e+07,8.999999999999999e-03
	-4.062761660961737e-03,1.007455079975356e-05
	5.000000000000000e-02,0.000000000000000e+00
5		1.258925411794168e+07,8.999999999999999e-03
	-4.062760364613142e-03,1.054934794074827e-05
	5.000000000000000e-02,0.000000000000000e+00
6		1.318256738556408e+07,8.999999999999999e-03
	-4.062758943195685e-03,1.104652131339092e-05
	5.000000000000000e-02,0.000000000000000e+00
7		1.380384264602885e+07,8.999999999999999e-03
	-4.062757384643051e-03,1.156712543725148e-05
	5.000000000000000e-02,0.000000000000000e+00
8		1.445439770745928e+07,8.999999999999999e-03
	-4.062755675724810e-03,1.211226452398883e-05
	5.000000000000000e-02,0.000000000000000e+00
9		1.513561248436209e+07,8.999999999999999e-03
	-4.062753801934107e-03,1.268309481839448e-05
	5.000000000000000e-02,0.000000000000000e+00
10		1.584893192461115e+07,8.999999999999999e-03
	-4.062751747364527e-03,1.328082704963717e-05
	5.000000000000000e-02,0.000000000000000e+00
11		1.659586907437562e+07,8.999999999999999e-03
	-4.062749494575064e-03,1.390672899788264e-05
	5.000000000000000e-02,0.000000000000000e+00
12		1.737800828749377e+07,8.999999999999999e-03
	-4.062747024442082e-03,1.456212818170417e-05
	5.000000000000000e-02,0.000000000000000e+00
13		1.819700858609985e+07,8.999999999999999e-03
	-4.062744315996983e-03,1.524841467195122e-05
	5.000000000000000e-02,0.000000000000000e+00
14		1.905460717963249e+07,8.999999999999999e-03
	-4.062741346248218e-03,1.596704403800717e-05
	5.000000000000000e-02,0.000000000000000e+00
15		1.995262314968882e+07,8.999999999999999e-03
	-4.062738089986134e-03,1.671954043264200e-05
	5.000000000000000e-02,0.000000000000000e+00
16		2.089296130854042e+07,8.999999999999999e-03
	-4.062734519568984e-03,1.750749982195366e-05
	5.000000000000000e-02,0.000000000000000e+00
17		2.187761623949555e+07,8.999999999999999e-03
	-4.062730604688308e-03,1.833259336719195e-05
	5.000000000000000e-02,0.000000000000000e+00
18		2.290867652767776e+07,8.999999999999999e-03
	-4.062726312111669e-03,1.919657096557270e-05
	5.000000000000000e-02,0.000000000000000e+00
19		2.398832919019494e+07,8.999999999999999e-03
	-4.062721605400587e-03,2.010126495751736e-05
	5.000000000000000e-02,0.000000000000000e+00
20		2.511886431509584e+07,8.999999999999999e-03
	-4.062716444601253e-03,2.104859400809500e-05
	5.000000000000000e-02,0.000000000000000e+00
21		2.630267991895386e+07,8.999999999999999e-03
	-4.062710785905413e-03,2.204056717080047e-05
	5.000000000000000e-02,0.000000000000000e+00
22		2.754228703338171e+07,8.999999999999999e-03
	-4.062704581278551e-03,2.307928814217446e-05
	5.000000000000000e-02,0.000000000000000e+00
23		2.884031503126611e+07,8.999999999999999e-03
	-4.062697778052197e-03,2.416695971615909e-05
	5.000000000000000e-02,0.000000000000000e+00
24		3.019951720402022e+07,8.999999999999999e-03
	-4.062690318476921e-03,2.530588844748704e-05
	5.000000000000000e-02,0.000000000000000e+00
25		3.162277660168386e+07,8.999999999999999e-03
	-4.062682139232214e-03,2.649848953382311e-05
	5.000000000000000e-02,0.000000000000000e+00
26		3.311311214825918e+07,8.999999999999999e-03
	-4.062673170889089e-03,2.774729192681586e-05
	5.000000000000000e-02,0.000000000000000e+00
27		3.467368504525324e+07,8.999999999999999e-03
	-4.062663337320876e-03,2.905494368267287e-05
	5.000000000000000e-02,0.000000000000000e+00
28		3.630780547701021e+07,8.999999999999999e-03
	-4.062652555057168e-03,3.042421756334767e-05
	5.000000000000000e-02,0.000000000000000e+00
29		3.801893963205621e+07,8.999999999999999e-03
	-4.062640732575486e-03,3.185801689991937e-05
	5.000000000000000e-02,0.000000000000000e+00
30		3.981071705534982e+07,8.999999999999999e-03
	-4.062627769524633e-03,3.335938173025740e-05
	5.000000000000000e-02,0.000000000000000e+00
31		4.168693834703364e+07,8.999999999999999e-03
	-4.062613555873158e-03,3.493149522359508e-05
	5.000000000000000e-02,0.000000000000000e+00
32		4.365158322401670e+07,8.999999999999999e-03
	-4.062597970975709e-03,3.657769040518516e-05
	5.000000000000000e-02,0.000000000000000e+00
33		4.570881896148762e+07,8.999999999999999e-03
	-4.062580882549386e-03,3.830145719478038e-05
	5.000000000000000e-02,0.000000000000000e+00
34		4.786300923226396e+07,8.999999999999999e-03
	-4.062562145551382e-03,4.010644977327016e-05
	5.000000000000000e-02,0.000000000000000e+00
35		5.011872336272737e+07,8.999999999999999e-03
	-4.062541600948454e-03,4.199649429241202e-05
	5.000000000000000e-02,0.000000000000000e+00
36		5.248074602497741e+07,8.999999999999999e-03
	-4.062519074367744e-03,4.397559694322284e-05
	5.000000000000000e-02,0.000000000000000e+00
37		5.495408738576262e+07,8.999999999999999e-03
	-4.062494374617595e-03,4.604795239923837e-05
	5.000000000000000e-02,0.000000000000000e+00
38		5.754399373371587e+07,8.999999999999999e-03
	-4.062467292065769e-03,4.821795265151121e-05
	5.000000000000000e-02,0.000000000000000e+00
39		6.025595860743596e+07,8.999999999999999e-03
	-4.062437596861413e-03,5.049019625289397e-05
	5.000000000000000e-02,0.000000000000000e+00
40		6.309573444801953e+07,8.999999999999999e-03
	-4.062405036985668e-03,5.286949798984648e-05
	5.000000000000000e-02,0.000000000000000e+00
41		6.606934480075981e+07,8.999999999999999e-03
	-4.062369336114482e-03,5.536089900070924e-05
	5.000000000000000e-02,0.000000000000000e+00
42		6.918309709189388e+07,8.999999999999999e-03
	-4.062330191275533e-03,5.796967736010038e-05
	5.000000000000000e-02,0.000000000000000e+00
43		7.244359600749926e+07,8.999999999999999e-03
	-4.062287270279472e-03,6.070135914981446e-05
	5.000000000000000e-02,0.000000000000000e+00
44		7.585775750291865e+07,8.999999999999999e-03
	-4.062240208903788e-03,6.356173003732693e-05
	5.000000000000000e-02,0.000000000000000e+00
45		7.943282347242844e+07,8.999999999999999e-03
	-4.062188607805510e-03,6.655684738373286e-05
	5.000000000000000e-02,0.000000000000000e+00
46		8.317637711026742e+07,8.999999999999999e-03
	-4.062132029136710e-03,6.969305290366754e-05
	5.000000000000000e-02,0.000000000000000e+00
47		8.709635899560840e+07,8.999999999999999e-03
	-4.062069992834247e-03,7.297698590046374e-05
	5.000000000000000e-02,0.000000000000000e+00
48		9.120108393559134e+07,8.999999999999999e-03
	-4.062001972552495e-03,7.641559710048882e-05
	5.000000000000000e-02,0.000000000000000e+00
49		9.549925860214399e+07,8.999999999999999e-03
	-4.061927391204795e-03,8.001616311126445e-05
	5.000000000000000e-02,0.000000000000000e+00
50		1.000000000000004e+08,8.999999999999999e-03
	-4.061845616076106e-03,8.378630152859480e-05
	5.000000000000000e-02,0.000000000000000e+00
51		1.047128548050904e+08,8.999999999999999e-03
	-4.061755953465761e-03,8.773398671850131e-05
	5.000000000000000e-02,0.000000000000000e+00
52		1.096478196143190e+08,8.999999999999999e-03
	-4.061657642815329e-03,9.186756630027026e-05
	5.000000000000000e-02,0.000000000000000e+00
53		1.148153621496888e+08,8.999999999999999e-03
	-4.061549850272293e-03,9.619577835734880e-05
	5.000000000000000e-02,0.000000000000000e+00
54		1.202264434617418e+08,8.999999999999999e-03
	-4.061431661635589e-03,1.007277694031528e-04
	5.000000000000000e-02,0.000000000000000e+00
55		1.258925411794173e+08,8.999999999999999e-03
	-4.061302074623950e-03,1.054731131290584e-04
	5.000000000000000e-02,0.000000000000000e+00
56		1.318256738556413e+08,8.999999999999999e-03
	-4.061159990402395e-03,1.104418299619099e-04
	5.000000000000000e-02,0.000000000000000e+00
57		1.380384264602891e+08,8.999999999999999e-03
	-4.061004204296121e-03,1.156444074582582e-04
	5.000000000000000e-02,0.000000000000000e+00
58		1.445439770745934e+08,8.999999999999999e-03
	-4.060833395614398e-03,1.210918215622160e-04
	5.000000000000000e-02,0.000000000000000e+00
59		1.513561248436215e+08,8.999999999999999e-03
	-4.060646116499782e-03,1.267955587532372e-04
	5.000000000000000e-02,0.000000000000000e+00
60		1.584893192461121e+08,8.999999999999999e-03
	-4.060440779710055e-03,1.327676391092456e-04
	5.000000000000000e-02,0.000000000000000e+00
61		1.659586907437569e+08,8.999999999999999e-03
	-4.060215645231627e-03,1.390206403093104e-04
	5.000000000000000e-02,0.000000000000000e+00
62		1.737800828749384e+08,8.999999999999999e-03
	-4.059968805613756e-03,1.455677225984217e-04
	5.000000000000000e-02,0.000000000000000e+00
63		1.819700858609993e+08,8.999999999999999e-03
	-4.059698169902643e-03,1.524226547347906e-04
	5.000000000000000e-02,0.000000000000000e+00
64		1.905460717963257e+08,8.999999999999999e-03
	-4.059401446043297e-03,1.595998409374058e-04
	5.000000000000000e-02,0.000000000000000e+00
65		1.995262314968890e+08,8.999999999999999e-03
	-4.059076121604953e-03,1.671143488482250e-04
	5.000000000000000e-02,0.000000000000000e+00
66		2.089296130854051e+08,8.999999999999999e-03
	-4.058719442672602e-03,1.749819385192605e-04
	5.000000000000000e-02,0.000000000000000e+00
67		2.187761623949564e+08,8.999999999999999e-03
	-4.058328390732870e-03,1.832190924298068e-04
	5.000000000000000e-02,0.000000000000000e+00
68		2.290867652767785e+08,8.999999999999999e-03
	-4.057899657366982e-03,1.918430465330153e-04
	5.000000000000000e-02,0.000000000000000e+00
69		2.398832919019504e+08,8.999999999999999e-03
	-4.057429616546701e-03,2.008718223237872e-04
	5.000000000000000e-02,0.000000000000000e+00
70		2.511886431509594e+08,8.999999999999999e-03
	-4.056914294310945e-03,2.103242599113375e-04
	5.000000000000000e-02,0.000000000000000e+00
71		2.630267991895397e+08,8.999999999999999e-03
	-4.056349335581153e-03,2.202200520695813e-04
	5.000000000000000e-02,0.000000000000000e+00
72		2.754228703338182e+08,8.999999999999999e-03
	-4.055729967852284e-03,2.305797792264551e-04
	5.000000000000000e-02,0.000000000000000e+00
73		2.884031503126622e+08,8.999999999999999e-03
	-4.055050961473519e-03,2.414249453391436e-04
	5.000000000000000e-02,0.000000000000000e+00
74		3.019951720402034e+08,8.999999999999999e-03
	-4.054306586208304e-03,2.527780145856257e-04
	5.000000000000000e-02,0.000000000000000e+00
75		3.162277660168398e+08,8.999999999999999e-03
	-4.053490563737099e-03,2.646624487836118e-04
	5.000000000000000e-02,0.000000000000000e+00
76		3.311311214825931e+08,8.999999999999999e-03
	-4.052596015738255e-03,2.771027454254421e-04
	5.000000000000000e-02,0.000000000000000e+00
77		3.467368504525337e+08,8.999999999999999e-03
	-4.051615407152543e-03,2.901244761913650e-04
	5.000000000000000e-02,0.000000000000000e+00
78		3.630780547701036e+08,8.999999999999999e-03
	-4.050540484205305e-03,3.037543257733265e-04
	5.000000000000000e-02,0.000000000000000e+00
79		3.801893963205636e+08,8.999999999999999e-03
	-4.049362206726703e-03,3.180201308063726e-04
	5.000000000000000e-02,0.000000000000000e+00
80		3.981071705534998e+08,8.999999999999999e-03
	-4.048070674275459e-03,3.329509186643592e-04
	5.000000000000000e-02,0.000000000000000e+00
81		4.168693834703380e+08,8.999999999999999e-03
	-4.046655045534746e-03,3.485769458301282e-04
	5.000000000000000e-02,0.000000000000000e+00
82		4.365158322401688e+08,1.000000000000000e-02
	-4.045103450410807e-03,3.649297354968226e-04
	5.000000000000000e-02,0.000000000000000e+00
83		4.570881896148780e+08,1.000000000000000e-02
	-4.043402894225706e-03,3.820421139956695e-04
	5.000000000000000e-02,0.000000000000000e+00
84		4.786300923226415e+08,1.000000000000000e-02
	-4.041539153355681e-03,3.999482455753101e-04
	5.000000000000000e-02,0.000000000000000e+00
85		5.011872336272756e+08,1.000000000000000e-02
	-4.039496661626511e-03,4.186836649774934e-04
	5.000000000000000e-02,0.000000000000000e+00
86		5.248074602497762e+08,1.000000000000000e-02
	-4.037258386737698e-03,4.382853071624004e-04
	5.000000000000000e-02,0.000000000000000e+00
87		5.495408738576283e+08,1.000000000000000e-02
	-4.034805695948968e-03,4.587915334326765e-04
	5.000000000000000e-02,0.000000000000000e+00
88		5.754399373371609e+08,1.000000000000000e-02
	-4.032118210226796e-03,4.802421530869152e-04
	5.000000000000000e-02,0.000000000000000e+00
89		6.025595860743620e+08,1.000000000000000e-02
	-4.029173646016645e-03,5.026784395992462e-04
	5.000000000000000e-02,0.000000000000000e+00
90		6.309573444801978e+08,1.000000000000000e-02
	-4.025947643780059e-03,5.261431401701124e-04
	5.000000000000000e-02,0.000000000000000e+00
91		6.606934480076008e+08,1.000000000000000e-02
	-4.022413582416888e-03,5.506804773224250e-04
	5.000000000000000e-02,0.000000000000000e+00
92		6.918309709189415e+08,1.000000000000000e-02
	-4.018542378684121e-03,5.763361410251798e-04
	5.000000000000000e-02,0.000000000000000e+00
93		7.244359600749954e+08,1.000000000000000e-02
	-4.014302270727294e-03,6.031572696113089e-04
	5.000000000000000e-02,0.000000000000000e+00
94		7.585775750291895e+08,1.000000000000000e-02
	-4.009658584861891e-03,6.311924175160984e-04
	5.000000000000000e-02,0.000000000000000e+00
95		7.943282347242875e+08,1.000000000000000e-02
	-4.004573484785066e-03,6.604915075950141e-04
	5.000000000000000e-02,0.000000000000000e+00
96		8.317637711026773e+08,1.000000000000000e-02
	-3.999005702467618e-03,6.911057654835005e-04
	5.000000000000000e-02,0.000000000000000e+00
97		8.709635899560874e+08,1.000000000000000e-02
	-3.992910250078846e-03,7.230876331347901e-04
	5.000000000000000e-02,0.000000000000000e+00
98		9.120108393559169e+08,1.000000000000000e-02
	-3.986238112440003e-03,7.564906583139273e-04
	5.000000000000000e-02,0.000000000000000e+00
99		9.549925860214435e+08,1.000000000000000e-02
	-3.978935919694131e-03,7.913693564366419e-04
	5.000000000000000e-02,0.000000000000000e+00
100		1.000000000000008e+09,1.000000000000000e-02
	-3.970945600131151e-03,8.277790407208599e-04
	5.000000000000000e-02,0.000000000000000e+00
