Title: *inverter
Date: Tue Oct  4 13:32:51  2011
Plotname: DC transfer characteristic
Flags: real
No. Variables: 3
No. Points: 181     
Variables:
	0	v(v-sweep)	voltage
	1	i(vdc)	current
	2	v(out)	voltage
Values:
0		0.000000000000000e+00
	1.405031920260396e-20
	0.000000000000000e+00
1		1.000000000000000e-02
	-1.777598036643854e-05
	1.000000000000000e-02
2		2.000000000000000e-02
	-3.393787067456165e-05
	2.000000000000000e-02
3		3.000000000000000e-02
	-4.852847456482575e-05
	3.000000000000000e-02
4		4.000000000000000e-02
	-6.158914179003300e-05
	4.000000000000000e-02
5		5.000000000000000e-02
	-7.316934376656188e-05
	5.000000000000000e-02
6		6.000000000000000e-02
	-8.332249516114772e-05
	6.000000000000000e-02
7		7.000000000000001e-02
	-9.211293648555465e-05
	7.000000000000001e-02
8		8.000000000000000e-02
	-9.961852735315291e-05
	8.000000000000000e-02
9		9.000000000000000e-02
	-1.059367493933793e-04
	9.000000000000000e-02
10		9.999999999999999e-02
	-1.111879872904922e-04
	9.999999999999999e-02
11		1.100000000000000e-01
	-1.155151248124269e-04
	1.100000000000000e-01
12		1.200000000000000e-01
	-1.190758590876623e-04
	1.200000000000000e-01
13		1.300000000000000e-01
	-1.220290622888782e-04
	1.300000000000000e-01
14		1.400000000000000e-01
	-1.245199703312342e-04
	1.400000000000000e-01
15		1.500000000000000e-01
	-1.266700629329291e-04
	1.500000000000000e-01
16		1.600000000000000e-01
	-1.285739277180191e-04
	1.600000000000000e-01
17		1.700000000000000e-01
	-1.303015750112249e-04
	1.700000000000000e-01
18		1.800000000000000e-01
	-1.319032422985039e-04
	1.800000000000000e-01
19		1.900000000000000e-01
	-1.334144401933361e-04
	1.900000000000000e-01
20		2.000000000000000e-01
	-1.348601820950415e-04
	2.000000000000000e-01
21		2.100000000000000e-01
	-1.362581620015659e-04
	2.100000000000000e-01
22		2.200000000000001e-01
	-1.376210094334020e-04
	2.200000000000001e-01
23		2.300000000000001e-01
	-1.389578449904434e-04
	2.300000000000001e-01
24		2.400000000000001e-01
	-1.402753413330554e-04
	2.400000000000001e-01
25		2.500000000000001e-01
	-1.415784460295168e-04
	2.500000000000001e-01
26		2.600000000000001e-01
	-1.428708764918599e-04
	2.600000000000001e-01
27		2.700000000000001e-01
	-1.441554617866464e-04
	2.700000000000001e-01
28		2.800000000000001e-01
	-1.454343812164176e-04
	2.800000000000001e-01
29		2.900000000000001e-01
	-1.467093327996491e-04
	2.900000000000001e-01
30		3.000000000000001e-01
	-1.479816536892444e-04
	3.000000000000001e-01
31		3.100000000000001e-01
	-1.492524072835481e-04
	3.100000000000001e-01
32		3.200000000000001e-01
	-1.505224469914977e-04
	3.200000000000001e-01
33		3.300000000000001e-01
	-1.517924634451206e-04
	3.300000000000001e-01
34		3.400000000000001e-01
	-1.530630198415888e-04
	3.400000000000001e-01
35		3.500000000000001e-01
	-1.543345786774261e-04
	3.500000000000001e-01
36		3.600000000000002e-01
	-1.556075221733688e-04
	3.600000000000002e-01
37		3.700000000000002e-01
	-1.568821680265895e-04
	3.700000000000002e-01
38		3.800000000000002e-01
	-1.581587816681207e-04
	3.800000000000002e-01
39		3.900000000000002e-01
	-1.594375858816662e-04
	3.900000000000002e-01
40		4.000000000000002e-01
	-1.607187684122720e-04
	4.000000000000002e-01
41		4.100000000000002e-01
	-1.620024880305773e-04
	4.100000000000002e-01
42		4.200000000000002e-01
	-1.632888794007715e-04
	4.200000000000002e-01
43		4.300000000000002e-01
	-1.645780570147471e-04
	4.300000000000002e-01
44		4.400000000000002e-01
	-1.658701183920486e-04
	4.400000000000002e-01
45		4.500000000000002e-01
	-1.671651466984569e-04
	4.500000000000002e-01
46		4.600000000000002e-01
	-1.684632129012347e-04
	4.600000000000002e-01
47		4.700000000000003e-01
	-1.697643775527472e-04
	4.700000000000003e-01
48		4.800000000000003e-01
	-1.710686922742356e-04
	4.800000000000003e-01
49		4.900000000000003e-01
	-1.723762009962606e-04
	4.900000000000003e-01
50		5.000000000000002e-01
	-1.736869410006386e-04
	5.000000000000002e-01
51		5.100000000000002e-01
	-1.750009437995604e-04
	5.100000000000002e-01
52		5.200000000000002e-01
	-1.763182358805261e-04
	5.200000000000002e-01
53		5.300000000000002e-01
	-1.776388393401603e-04
	5.300000000000002e-01
54		5.400000000000003e-01
	-1.789627724256090e-04
	5.400000000000003e-01
55		5.500000000000003e-01
	-1.802900499987091e-04
	5.500000000000003e-01
56		5.600000000000003e-01
	-1.816206839353799e-04
	5.600000000000003e-01
57		5.700000000000003e-01
	-1.829546834704730e-04
	5.700000000000003e-01
58		5.800000000000003e-01
	-1.842920554964826e-04
	5.800000000000003e-01
59		5.900000000000003e-01
	-1.856328048231263e-04
	5.900000000000003e-01
60		6.000000000000003e-01
	-1.869769344036172e-04
	6.000000000000003e-01
61		6.100000000000003e-01
	-1.883244455324543e-04
	6.100000000000003e-01
62		6.200000000000003e-01
	-1.896753380188139e-04
	6.200000000000003e-01
63		6.300000000000003e-01
	-1.910296103389716e-04
	6.300000000000003e-01
64		6.400000000000003e-01
	-1.923872597706266e-04
	6.400000000000003e-01
65		6.500000000000004e-01
	-1.937482825115729e-04
	6.500000000000004e-01
66		6.600000000000004e-01
	-1.951126737848241e-04
	6.600000000000004e-01
67		6.700000000000004e-01
	-1.964804279319213e-04
	6.700000000000004e-01
68		6.800000000000004e-01
	-1.978515384959549e-04
	6.800000000000004e-01
69		6.900000000000004e-01
	-1.992259982956098e-04
	6.900000000000004e-01
70		7.000000000000004e-01
	-2.006037994913156e-04
	7.000000000000004e-01
71		7.100000000000004e-01
	-2.019849336444924e-04
	7.100000000000004e-01
72		7.200000000000004e-01
	-2.033693917707009e-04
	7.200000000000004e-01
73		7.300000000000004e-01
	-2.047571643874237e-04
	7.300000000000004e-01
74		7.400000000000004e-01
	-2.061482415571027e-04
	7.400000000000004e-01
75		7.500000000000004e-01
	-2.075426129259703e-04
	7.500000000000004e-01
76		7.600000000000005e-01
	-2.089402677591362e-04
	7.600000000000005e-01
77		7.700000000000005e-01
	-2.103411949723769e-04
	7.700000000000005e-01
78		7.800000000000005e-01
	-2.117453831609376e-04
	7.800000000000005e-01
79		7.900000000000005e-01
	-2.131528206257278e-04
	7.900000000000005e-01
80		8.000000000000005e-01
	-2.145634953971314e-04
	8.000000000000005e-01
81		8.100000000000005e-01
	-2.159773952567141e-04
	8.100000000000005e-01
82		8.200000000000005e-01
	-2.173945077570276e-04
	8.200000000000005e-01
83		8.300000000000005e-01
	-2.188148202397175e-04
	8.300000000000005e-01
84		8.400000000000005e-01
	-2.202383198520866e-04
	8.400000000000005e-01
85		8.500000000000005e-01
	-2.216649935622733e-04
	8.500000000000005e-01
86		8.600000000000005e-01
	-2.230948281731975e-04
	8.600000000000005e-01
87		8.700000000000006e-01
	-2.245278103353574e-04
	8.700000000000006e-01
88		8.800000000000006e-01
	-2.259639265586189e-04
	8.800000000000006e-01
89		8.900000000000006e-01
	-2.274031632230595e-04
	8.900000000000006e-01
90		9.000000000000006e-01
	-2.288455065889941e-04
	9.000000000000006e-01
91		9.100000000000006e-01
	-2.302909428062029e-04
	9.100000000000006e-01
92		9.200000000000006e-01
	-2.317394579224964e-04
	9.200000000000006e-01
93		9.300000000000006e-01
	-2.331910378916218e-04
	9.300000000000006e-01
94		9.400000000000006e-01
	-2.346456685805960e-04
	9.400000000000006e-01
95		9.500000000000006e-01
	-2.361033357765050e-04
	9.500000000000006e-01
96		9.600000000000006e-01
	-2.375640251928317e-04
	9.600000000000006e-01
97		9.700000000000006e-01
	-2.390277224753085e-04
	9.700000000000006e-01
98		9.800000000000006e-01
	-2.404944132073992e-04
	9.800000000000006e-01
99		9.900000000000007e-01
	-2.419640829153801e-04
	9.900000000000007e-01
100		1.000000000000001e+00
	-2.434367170730921e-04
	1.000000000000001e+00
101		1.010000000000001e+00
	-2.449123011063612e-04
	1.010000000000001e+00
102		1.020000000000001e+00
	-2.463908203971460e-04
	1.020000000000001e+00
103		1.030000000000001e+00
	-2.478722602873972e-04
	1.030000000000001e+00
104		1.040000000000001e+00
	-2.493566060826762e-04
	1.040000000000001e+00
105		1.050000000000001e+00
	-2.508438430555526e-04
	1.050000000000001e+00
106		1.060000000000001e+00
	-2.523339564487770e-04
	1.060000000000001e+00
107		1.070000000000001e+00
	-2.538269314782631e-04
	1.070000000000001e+00
108		1.080000000000001e+00
	-2.553227533358876e-04
	1.080000000000001e+00
109		1.090000000000001e+00
	-2.568214071921196e-04
	1.090000000000001e+00
110		1.100000000000001e+00
	-2.583228781984881e-04
	1.100000000000001e+00
111		1.110000000000001e+00
	-2.598271514899124e-04
	1.110000000000001e+00
112		1.120000000000001e+00
	-2.613342121868956e-04
	1.120000000000001e+00
113		1.130000000000001e+00
	-2.628440453975843e-04
	1.130000000000001e+00
114		1.140000000000001e+00
	-2.643566362197200e-04
	1.140000000000001e+00
115		1.150000000000001e+00
	-2.658719697424717e-04
	1.150000000000001e+00
116		1.160000000000001e+00
	-2.673900310481756e-04
	1.160000000000001e+00
117		1.170000000000001e+00
	-2.689108052139586e-04
	1.170000000000001e+00
118		1.180000000000001e+00
	-2.704342773133054e-04
	1.180000000000001e+00
119		1.190000000000001e+00
	-2.719604324175151e-04
	1.190000000000001e+00
120		1.200000000000001e+00
	-2.734892555970837e-04
	1.200000000000001e+00
121		1.210000000000001e+00
	-2.750207319230241e-04
	1.210000000000001e+00
122		1.220000000000001e+00
	-2.765548464681064e-04
	1.220000000000001e+00
123		1.230000000000001e+00
	-2.780915843080287e-04
	1.230000000000001e+00
124		1.240000000000001e+00
	-2.796309305225468e-04
	1.240000000000001e+00
125		1.250000000000001e+00
	-2.811728701965263e-04
	1.250000000000001e+00
126		1.260000000000001e+00
	-2.827173884209543e-04
	1.260000000000001e+00
127		1.270000000000001e+00
	-2.842644702938874e-04
	1.270000000000001e+00
128		1.280000000000001e+00
	-2.858141009213710e-04
	1.280000000000001e+00
129		1.290000000000001e+00
	-2.873662654182859e-04
	1.290000000000001e+00
130		1.300000000000001e+00
	-2.889209489091767e-04
	1.300000000000001e+00
131		1.310000000000001e+00
	-2.904781365290383e-04
	1.310000000000001e+00
132		1.320000000000001e+00
	-2.920378134240411e-04
	1.320000000000001e+00
133		1.330000000000001e+00
	-2.935999647522528e-04
	1.330000000000001e+00
134		1.340000000000001e+00
	-2.951645756842995e-04
	1.340000000000001e+00
135		1.350000000000001e+00
	-2.967316314040118e-04
	1.350000000000001e+00
136		1.360000000000001e+00
	-2.983011171090190e-04
	1.360000000000001e+00
137		1.370000000000001e+00
	-2.998730180113488e-04
	1.370000000000001e+00
138		1.380000000000001e+00
	-3.014473193379683e-04
	1.380000000000001e+00
139		1.390000000000001e+00
	-3.030240063313140e-04
	1.390000000000001e+00
140		1.400000000000001e+00
	-3.046030642497886e-04
	1.400000000000001e+00
141		1.410000000000001e+00
	-3.061844783682489e-04
	1.410000000000001e+00
142		1.420000000000001e+00
	-3.077682339784454e-04
	1.420000000000001e+00
143		1.430000000000001e+00
	-3.093543163894713e-04
	1.430000000000001e+00
144		1.440000000000001e+00
	-3.109427109281700e-04
	1.440000000000001e+00
145		1.450000000000001e+00
	-3.125334029395327e-04
	1.450000000000001e+00
146		1.460000000000001e+00
	-3.141263777870717e-04
	1.460000000000001e+00
147		1.470000000000001e+00
	-3.157216208531809e-04
	1.470000000000001e+00
148		1.480000000000001e+00
	-3.173191175394817e-04
	1.480000000000001e+00
149		1.490000000000001e+00
	-3.189188532671357e-04
	1.490000000000001e+00
150		1.500000000000001e+00
	-3.205208134771701e-04
	1.500000000000001e+00
151		1.510000000000001e+00
	-3.221249836307677e-04
	1.510000000000001e+00
152		1.520000000000001e+00
	-3.237313492095523e-04
	1.520000000000001e+00
153		1.530000000000001e+00
	-3.253398957158512e-04
	1.530000000000001e+00
154		1.540000000000001e+00
	-3.269506086729618e-04
	1.540000000000001e+00
155		1.550000000000001e+00
	-3.285634736253800e-04
	1.550000000000001e+00
156		1.560000000000001e+00
	-3.301784761390453e-04
	1.560000000000001e+00
157		1.570000000000001e+00
	-3.317956018015586e-04
	1.570000000000001e+00
158		1.580000000000001e+00
	-3.334148362223902e-04
	1.580000000000001e+00
159		1.590000000000001e+00
	-3.350361650330841e-04
	1.590000000000001e+00
160		1.600000000000001e+00
	-3.366595738874441e-04
	1.600000000000001e+00
161		1.610000000000001e+00
	-3.382850484617111e-04
	1.610000000000001e+00
162		1.620000000000001e+00
	-3.399125744547389e-04
	1.620000000000001e+00
163		1.630000000000001e+00
	-3.415421375881596e-04
	1.630000000000001e+00
164		1.640000000000001e+00
	-3.431737236065333e-04
	1.640000000000001e+00
165		1.650000000000001e+00
	-3.448073182774939e-04
	1.650000000000001e+00
166		1.660000000000001e+00
	-3.464429073918915e-04
	1.660000000000001e+00
167		1.670000000000001e+00
	-3.480804767639204e-04
	1.670000000000001e+00
168		1.680000000000001e+00
	-3.497200122312347e-04
	1.680000000000001e+00
169		1.690000000000001e+00
	-3.513614996550818e-04
	1.690000000000001e+00
170		1.700000000000001e+00
	-3.530049249203983e-04
	1.700000000000001e+00
171		1.710000000000001e+00
	-3.546502739359206e-04
	1.710000000000001e+00
172		1.720000000000001e+00
	-3.562975326342799e-04
	1.720000000000001e+00
173		1.730000000000001e+00
	-3.579466869720965e-04
	1.730000000000001e+00
174		1.740000000000001e+00
	-3.595977229300558e-04
	1.740000000000001e+00
175		1.750000000000001e+00
	-3.612506265129985e-04
	1.750000000000001e+00
176		1.760000000000001e+00
	-3.629053837499901e-04
	1.760000000000001e+00
177		1.770000000000001e+00
	-3.645619806943950e-04
	1.770000000000001e+00
178		1.780000000000001e+00
	-3.662204034239354e-04
	1.780000000000001e+00
179		1.790000000000001e+00
	-3.678806380407521e-04
	1.790000000000001e+00
180		1.800000000000001e+00
	-3.695426706714691e-04
	1.800000000000001e+00
