Title: *inverter
Date: Fri Sep 23 15:55:48  2011
Plotname: AC Analysis
Flags: complex
No. Variables: 3
No. Points: 101     
Variables:
	0	frequency	frequency	grid=3
	1	v(out)	voltage
	2	v(in)	voltage
Values:
0		1.000000000000000e+07,8.000000000000000e-03
	1.234109547142766e-02,-4.535036545677537e-05
	1.000000000000000e-02,0.000000000000000e+00
1		1.047128548050900e+07,8.000000000000000e-03
	1.234107909704269e-02,-4.748759815261915e-05
	1.000000000000000e-02,0.000000000000000e+00
2		1.096478196143185e+07,8.000000000000000e-03
	1.234106114293749e-02,-4.972554601372085e-05
	1.000000000000000e-02,0.000000000000000e+00
3		1.148153621496883e+07,8.000000000000000e-03
	1.234104145671377e-02,-5.206895419091453e-05
	1.000000000000000e-02,0.000000000000000e+00
4		1.202264434617413e+07,8.000000000000000e-03
	1.234101987127226e-02,-5.452279125841775e-05
	1.000000000000000e-02,0.000000000000000e+00
5		1.258925411794168e+07,8.000000000000000e-03
	1.234099620339471e-02,-5.709225971253708e-05
	1.000000000000000e-02,0.000000000000000e+00
6		1.318256738556408e+07,8.000000000000000e-03
	1.234097025218934e-02,-5.978280696058367e-05
	1.000000000000000e-02,0.000000000000000e+00
7		1.380384264602885e+07,8.000000000000000e-03
	1.234094179738631e-02,-6.260013682242297e-05
	1.000000000000000e-02,0.000000000000000e+00
8		1.445439770745928e+07,8.000000000000000e-03
	1.234091059746887e-02,-6.555022156804014e-05
	1.000000000000000e-02,0.000000000000000e+00
9		1.513561248436209e+07,8.000000000000000e-03
	1.234087638762443e-02,-6.863931451548877e-05
	1.000000000000000e-02,0.000000000000000e+00
10		1.584893192461115e+07,8.000000000000000e-03
	1.234083887749803e-02,-7.187396321460665e-05
	1.000000000000000e-02,0.000000000000000e+00
11		1.659586907437562e+07,8.000000000000000e-03
	1.234079774872932e-02,-7.526102324292734e-05
	1.000000000000000e-02,0.000000000000000e+00
12		1.737800828749377e+07,8.000000000000000e-03
	1.234075265225225e-02,-7.880767264128636e-05
	1.000000000000000e-02,0.000000000000000e+00
13		1.819700858609985e+07,8.000000000000000e-03
	1.234070320533440e-02,-8.252142701771786e-05
	1.000000000000000e-02,0.000000000000000e+00
14		1.905460717963249e+07,8.000000000000000e-03
	1.234064898833114e-02,-8.641015534935440e-05
	1.000000000000000e-02,0.000000000000000e+00
15		1.995262314968882e+07,8.000000000000000e-03
	1.234058954112711e-02,-9.048209651318008e-05
	1.000000000000000e-02,0.000000000000000e+00
16		2.089296130854042e+07,8.000000000000000e-03
	1.234052435923478e-02,-9.474587657763734e-05
	1.000000000000000e-02,0.000000000000000e+00
17		2.187761623949555e+07,8.000000000000000e-03
	1.234045288951745e-02,-9.921052688824970e-05
	1.000000000000000e-02,0.000000000000000e+00
18		2.290867652767776e+07,8.000000000000000e-03
	1.234037452550016e-02,-1.038855029815851e-04
	1.000000000000000e-02,0.000000000000000e+00
19		2.398832919019494e+07,8.000000000000000e-03
	1.234028860222936e-02,-1.087807043630461e-04
	1.000000000000000e-02,0.000000000000000e+00
20		2.511886431509584e+07,8.000000000000000e-03
	1.234019439063764e-02,-1.139064951851190e-04
	1.000000000000000e-02,0.000000000000000e+00
21		2.630267991895386e+07,8.000000000000000e-03
	1.234009109136610e-02,-1.192737258638383e-04
	1.000000000000000e-02,0.000000000000000e+00
22		2.754228703338171e+07,8.000000000000000e-03
	1.233997782799249e-02,-1.248937556723081e-04
	1.000000000000000e-02,0.000000000000000e+00
23		2.884031503126611e+07,8.000000000000000e-03
	1.233985363960778e-02,-1.307784763511636e-04
	1.000000000000000e-02,0.000000000000000e+00
24		3.019951720402022e+07,8.000000000000000e-03
	1.233971747267903e-02,-1.369403367768168e-04
	1.000000000000000e-02,0.000000000000000e+00
25		3.162277660168386e+07,8.000000000000000e-03
	1.233956817212986e-02,-1.433923687292171e-04
	1.000000000000000e-02,0.000000000000000e+00
26		3.311311214825918e+07,8.000000000000000e-03
	1.233940447156394e-02,-1.501482138016201e-04
	1.000000000000000e-02,0.000000000000000e+00
27		3.467368504525324e+07,8.000000000000000e-03
	1.233922498254918e-02,-1.572221514954846e-04
	1.000000000000000e-02,0.000000000000000e+00
28		3.630780547701021e+07,8.000000000000000e-03
	1.233902818287305e-02,-1.646291285440733e-04
	1.000000000000000e-02,0.000000000000000e+00
29		3.801893963205621e+07,8.000000000000000e-03
	1.233881240367067e-02,-1.723847895085724e-04
	1.000000000000000e-02,0.000000000000000e+00
30		3.981071705534982e+07,8.999999999999999e-03
	1.233857581531805e-02,-1.805055086905337e-04
	1.000000000000000e-02,0.000000000000000e+00
31		4.168693834703364e+07,8.999999999999999e-03
	1.233831641197290e-02,-1.890084234041251e-04
	1.000000000000000e-02,0.000000000000000e+00
32		4.365158322401670e+07,8.999999999999999e-03
	1.233803199463410e-02,-1.979114686509886e-04
	1.000000000000000e-02,0.000000000000000e+00
33		4.570881896148762e+07,8.999999999999999e-03
	1.233772015257916e-02,-2.072334132393961e-04
	1.000000000000000e-02,0.000000000000000e+00
34		4.786300923226396e+07,8.999999999999999e-03
	1.233737824302541e-02,-2.169938973877540e-04
	1.000000000000000e-02,0.000000000000000e+00
35		5.011872336272737e+07,8.999999999999999e-03
	1.233700336884673e-02,-2.272134718502888e-04
	1.000000000000000e-02,0.000000000000000e+00
36		5.248074602497741e+07,8.999999999999999e-03
	1.233659235416177e-02,-2.379136385997999e-04
	1.000000000000000e-02,0.000000000000000e+00
37		5.495408738576262e+07,8.999999999999999e-03
	1.233614171759244e-02,-2.491168930986029e-04
	1.000000000000000e-02,0.000000000000000e+00
38		5.754399373371587e+07,8.999999999999999e-03
	1.233564764297333e-02,-2.608467681840576e-04
	1.000000000000000e-02,0.000000000000000e+00
39		6.025595860743596e+07,8.999999999999999e-03
	1.233510594727207e-02,-2.731278795892131e-04
	1.000000000000000e-02,0.000000000000000e+00
40		6.309573444801953e+07,8.999999999999999e-03
	1.233451204545918e-02,-2.859859731119443e-04
	1.000000000000000e-02,0.000000000000000e+00
41		6.606934480075981e+07,8.999999999999999e-03
	1.233386091204195e-02,-2.994479734372658e-04
	1.000000000000000e-02,0.000000000000000e+00
42		6.918309709189388e+07,8.999999999999999e-03
	1.233314703895130e-02,-3.135420346070786e-04
	1.000000000000000e-02,0.000000000000000e+00
43		7.244359600749926e+07,8.999999999999999e-03
	1.233236438944266e-02,-3.282975921191291e-04
	1.000000000000000e-02,0.000000000000000e+00
44		7.585775750291865e+07,8.999999999999999e-03
	1.233150634764179e-02,-3.437454166221529e-04
	1.000000000000000e-02,0.000000000000000e+00
45		7.943282347242844e+07,8.999999999999999e-03
	1.233056566333404e-02,-3.599176691566578e-04
	1.000000000000000e-02,0.000000000000000e+00
46		8.317637711026742e+07,8.999999999999999e-03
	1.232953439156036e-02,-3.768479578701766e-04
	1.000000000000000e-02,0.000000000000000e+00
47		8.709635899560840e+07,8.999999999999999e-03
	1.232840382654606e-02,-3.945713961116231e-04
	1.000000000000000e-02,0.000000000000000e+00
48		9.120108393559134e+07,8.999999999999999e-03
	1.232716442944750e-02,-4.131246617810812e-04
	1.000000000000000e-02,0.000000000000000e+00
49		9.549925860214399e+07,8.999999999999999e-03
	1.232580574935913e-02,-4.325460577783586e-04
	1.000000000000000e-02,0.000000000000000e+00
50		1.000000000000004e+08,8.999999999999999e-03
	1.232431633697681e-02,-4.528755733552441e-04
	1.000000000000000e-02,0.000000000000000e+00
51		1.047128548050904e+08,8.999999999999999e-03
	1.232268365026467e-02,-4.741549461318793e-04
	1.000000000000000e-02,0.000000000000000e+00
52		1.096478196143190e+08,8.999999999999999e-03
	1.232089395142048e-02,-4.964277244860861e-04
	1.000000000000000e-02,0.000000000000000e+00
53		1.148153621496888e+08,8.999999999999999e-03
	1.231893219438024e-02,-5.197393299649396e-04
	1.000000000000000e-02,0.000000000000000e+00
54		1.202264434617418e+08,8.999999999999999e-03
	1.231678190204481e-02,-5.441371192992043e-04
	1.000000000000000e-02,0.000000000000000e+00
55		1.258925411794173e+08,8.999999999999999e-03
	1.231442503235193e-02,-5.696704455222416e-04
	1.000000000000000e-02,0.000000000000000e+00
56		1.318256738556413e+08,8.999999999999999e-03
	1.231184183225498e-02,-5.963907176042734e-04
	1.000000000000000e-02,0.000000000000000e+00
57		1.380384264602891e+08,8.999999999999999e-03
	1.230901067860649e-02,-6.243514579088716e-04
	1.000000000000000e-02,0.000000000000000e+00
58		1.445439770745934e+08,8.999999999999999e-03
	1.230590790488006e-02,-6.536083566595749e-04
	1.000000000000000e-02,0.000000000000000e+00
59		1.513561248436215e+08,8.999999999999999e-03
	1.230250761260042e-02,-6.842193224686711e-04
	1.000000000000000e-02,0.000000000000000e+00
60		1.584893192461121e+08,8.999999999999999e-03
	1.229878146628854e-02,-7.162445278253747e-04
	1.000000000000000e-02,0.000000000000000e+00
61		1.659586907437569e+08,8.999999999999999e-03
	1.229469847066837e-02,-7.497464482645753e-04
	1.000000000000000e-02,0.000000000000000e+00
62		1.737800828749384e+08,8.999999999999999e-03
	1.229022472882708e-02,-7.847898937375863e-04
	1.000000000000000e-02,0.000000000000000e+00
63		1.819700858609993e+08,8.999999999999999e-03
	1.228532317997209e-02,-8.214420304801652e-04
	1.000000000000000e-02,0.000000000000000e+00
64		1.905460717963257e+08,8.999999999999999e-03
	1.227995331539054e-02,-8.597723914177505e-04
	1.000000000000000e-02,0.000000000000000e+00
65		1.995262314968890e+08,8.999999999999999e-03
	1.227407087119247e-02,-8.998528728602693e-04
	1.000000000000000e-02,0.000000000000000e+00
66		2.089296130854051e+08,8.999999999999999e-03
	1.226762749641306e-02,-9.417577149160051e-04
	1.000000000000000e-02,0.000000000000000e+00
67		2.187761623949564e+08,8.999999999999999e-03
	1.226057039506672e-02,-9.855634626926568e-04
	1.000000000000000e-02,0.000000000000000e+00
68		2.290867652767785e+08,8.999999999999999e-03
	1.225284194079357e-02,-1.031348904950790e-03
	1.000000000000000e-02,0.000000000000000e+00
69		2.398832919019504e+08,8.999999999999999e-03
	1.224437926282364e-02,-1.079194986427409e-03
	1.000000000000000e-02,0.000000000000000e+00
70		2.511886431509594e+08,8.999999999999999e-03
	1.223511380211684e-02,-1.129184689552711e-03
	1.000000000000000e-02,0.000000000000000e+00
71		2.630267991895397e+08,8.999999999999999e-03
	1.222497083672560e-02,-1.181402880739157e-03
	1.000000000000000e-02,0.000000000000000e+00
72		2.754228703338182e+08,8.999999999999999e-03
	1.221386897568755e-02,-1.235936115827391e-03
	1.000000000000000e-02,0.000000000000000e+00
73		2.884031503126622e+08,8.999999999999999e-03
	1.220171962109985e-02,-1.292872398628239e-03
	1.000000000000000e-02,0.000000000000000e+00
74		3.019951720402034e+08,8.999999999999999e-03
	1.218842639847355e-02,-1.352300885805302e-03
	1.000000000000000e-02,0.000000000000000e+00
75		3.162277660168398e+08,8.999999999999999e-03
	1.217388455603386e-02,-1.414311530602174e-03
	1.000000000000000e-02,0.000000000000000e+00
76		3.311311214825931e+08,8.999999999999999e-03
	1.215798033434290e-02,-1.478994657138385e-03
	1.000000000000000e-02,0.000000000000000e+00
77		3.467368504525337e+08,8.999999999999999e-03
	1.214059030850038e-02,-1.546440456188758e-03
	1.000000000000000e-02,0.000000000000000e+00
78		3.630780547701036e+08,8.999999999999999e-03
	1.212158070625081e-02,-1.616738392536611e-03
	1.000000000000000e-02,0.000000000000000e+00
79		3.801893963205636e+08,8.999999999999999e-03
	1.210080670662428e-02,-1.689976513172363e-03
	1.000000000000000e-02,0.000000000000000e+00
80		3.981071705534998e+08,8.999999999999999e-03
	1.207811172529262e-02,-1.766240644823104e-03
	1.000000000000000e-02,0.000000000000000e+00
81		4.168693834703380e+08,8.999999999999999e-03
	1.205332669466671e-02,-1.845613468581599e-03
	1.000000000000000e-02,0.000000000000000e+00
82		4.365158322401688e+08,8.999999999999999e-03
	1.202626934892800e-02,-1.928173458801302e-03
	1.000000000000000e-02,0.000000000000000e+00
83		4.570881896148780e+08,8.999999999999999e-03
	1.199674352670928e-02,-2.013993672995868e-03
	1.000000000000000e-02,0.000000000000000e+00
84		4.786300923226415e+08,8.999999999999999e-03
	1.196453850704572e-02,-2.103140379299987e-03
	1.000000000000000e-02,0.000000000000000e+00
85		5.011872336272756e+08,8.999999999999999e-03
	1.192942839752874e-02,-2.195671508201799e-03
	1.000000000000000e-02,0.000000000000000e+00
86		5.248074602497762e+08,8.999999999999999e-03
	1.189117159732543e-02,-2.291634915851991e-03
	1.000000000000000e-02,0.000000000000000e+00
87		5.495408738576283e+08,8.999999999999999e-03
	1.184951036187117e-02,-2.391066447416631e-03
	1.000000000000000e-02,0.000000000000000e+00
88		5.754399373371609e+08,8.999999999999999e-03
	1.180417050057904e-02,-2.493987790814893e-03
	1.000000000000000e-02,0.000000000000000e+00
89		6.025595860743620e+08,8.999999999999999e-03
	1.175486124378372e-02,-2.600404113933646e-03
	1.000000000000000e-02,0.000000000000000e+00
90		6.309573444801978e+08,8.999999999999999e-03
	1.170127532026015e-02,-2.710301482220265e-03
	1.000000000000000e-02,0.000000000000000e+00
91		6.606934480076008e+08,8.999999999999999e-03
	1.164308929188999e-02,-2.823644058617293e-03
	1.000000000000000e-02,0.000000000000000e+00
92		6.918309709189415e+08,8.999999999999999e-03
	1.157996419719864e-02,-2.940371094318217e-03
	1.000000000000000e-02,0.000000000000000e+00
93		7.244359600749954e+08,8.999999999999999e-03
	1.151154656028593e-02,-3.060393726987164e-03
	1.000000000000000e-02,0.000000000000000e+00
94		7.585775750291895e+08,8.999999999999999e-03
	1.143746982578218e-02,-3.183591613070195e-03
	1.000000000000000e-02,0.000000000000000e+00
95		7.943282347242875e+08,8.999999999999999e-03
	1.135735628344402e-02,-3.309809432763210e-03
	1.000000000000000e-02,0.000000000000000e+00
96		8.317637711026773e+08,8.999999999999999e-03
	1.127081954733540e-02,-3.438853320152338e-03
	1.000000000000000e-02,0.000000000000000e+00
97		8.709635899560874e+08,8.999999999999999e-03
	1.117746765359729e-02,-3.570487286965198e-03
	1.000000000000000e-02,0.000000000000000e+00
98		9.120108393559169e+08,8.999999999999999e-03
	1.107690683689099e-02,-3.704429726080945e-03
	1.000000000000000e-02,0.000000000000000e+00
99		9.549925860214435e+08,8.999999999999999e-03
	1.096874603793768e-02,-3.840350100072679e-03
	1.000000000000000e-02,0.000000000000000e+00
100		1.000000000000008e+09,8.999999999999999e-03
	1.085260218237889e-02,-3.977865939995360e-03
	1.000000000000000e-02,0.000000000000000e+00
